date 2026-07-03 10:29:46.798
base hex  timestamps absolute
no internal events logged
// TOSUN TSMaster V2024.7.21.1150
1503.546242 3 17e  Rx d 8 8E F6 E0 00 FF FF 7F 2D 
1503.546479 3 37e  Rx d 8 82 FA 7F 7F FC 80 DF FF 
1503.546496 1 17e  Rx d 8 8E F6 E0 00 FF FF 7F 2D 
1503.546741 1 37e  Rx d 8 82 FA 7F 7F FC 80 DF FF 
1503.547045 1 229  Rx d 8 82 59 D8 63 E8 1B A7 FF 
1503.548339 1 1a9  Rx d 8 F8 01 FF 1C 23 FC 58 31 
1503.548568 1 269  Rx d 8 27 0C 00 48 FF 4E 20 FF 
1503.548593 3 1a9  Rx d 8 F8 01 FF 1C 23 FC 58 31 
1503.548806 1 3a9  Rx d 8 DC 21 28 00 C0 00 FF 7F 
1503.548830 3 269  Rx d 8 27 0C 00 48 FF 4E 20 FF 
1503.549052 1 219  Rx d 8 4D FC 01 FF 01 FF BF FF 
1503.549068 3 3a9  Rx d 8 DC 21 28 00 C0 00 FF 7F 
1503.549289 1 165  Rx d 8 5A DC 00 00 FF FF FF FF 
1503.549322 3 219  Rx d 8 4D FC 01 FF 01 FF BF FF 
1503.549813 3 106  Rx d 8 28 78 0C 21 3F 0C FC FF 
1503.550051 3 107  Rx d 8 28 F8 E5 FF FF FF FF FF 
1503.550289 3 10a  Rx d 8 C5 F8 A4 B3 00 FF FF FF 
1503.550534 3 11b  Rx d 8 D7 30 FF FF FF FF FF FF 
1503.550543 1 10a  Rx d 8 C5 F8 A4 B3 00 FF FF FF 
1503.550772 3 211  Rx d 8 03 3E CE FF FF FF FF FF 
1503.550788 1 11b  Rx d 8 D7 30 FF FF FF FF FF FF 
1503.551018 3 352  Rx d 8 72 F6 80 00 FF 80 00 FF 
1503.551255 3 342  Rx d 8 F8 F6 80 00 80 00 00 01 
1503.551280 1 352  Rx d 8 72 F6 80 00 FF 80 00 FF 
1503.551493 3 346  Rx d 8 E2 F6 14 55 FF FF FF FF 
1503.551542 1 342  Rx d 8 F8 F6 80 00 80 00 00 01 
1503.551730 3 262  Rx d 8 80 00 80 00 AF F4 AD F1 
1503.551976 3 102  Rx d 8 C8 05 00 E0 00 FF FF FF 
1503.552222 3 41d  Rx d 8 88 3F FF B9 C2 BF FF FF 
1503.552238 1 102  Rx d 8 C8 05 00 E0 00 FF FF FF 
1503.552820 3 504  Rx d 8 04 00 00 30 FF FF FF FF 
1503.553295 1 1f8  Rx d 8 48 53 4E 20 41 07 D0 FF 
1503.553565 3 1f8  Rx d 8 48 53 4E 20 41 07 D0 FF 
1503.556252 3 17e  Rx d 8 D3 F7 E0 00 FF FF 7F 2D 
1503.556514 1 17e  Rx d 8 D3 F7 E0 00 FF FF 7F 2D 
1503.556899 3 85  Rx d 8 C9 FC 01 00 FC FF FF FF 
1503.557006 1 229  Rx d 8 65 5A D8 63 E8 1B A7 FF 
1503.557244 1 85  Rx d 8 C9 FC 01 00 FC FF FF FF 
1503.557727 1 286  Rx d 8 F0 FA 0E 87 00 03 00 82 
1503.557964 1 126  Rx d 8 D6 F1 00 D1 01 FB FF FF 
1503.558202 1 1b9  Rx d 8 FF 00 7E 00 FE 01 FE 00 
1503.558440 1 125  Rx d 8 27 F1 02 69 05 8B FF FF 
1503.558456 3 1b9  Rx d 8 FF 00 7E 00 FE 01 FE 00 
1503.558677 1 174  Rx d 8 F4 F1 7F F9 FF FF FF FF 
1503.558907 1 205  Rx d 8 3B F1 2B 1F EC F2 EC F7 
1503.558947 3 174  Rx d 8 F4 F1 7F F9 FF FF FF FF 
1503.559152 1 206  Rx d 8 BE F1 E0 04 FF FF FF FF 
1503.559382 1 209  Rx d 8 26 F1 0E 50 4E 10 70 5E 
1503.559611 1 245  Rx d 8 49 F1 C7 46 C5 46 47 29 
1503.559759 3 109  Rx d 8 ED 36 CE C0 FF FF FF FF 
1503.559849 1 2d5  Rx d 8 32 F8 27 10 00 8A FF FF 
1503.559996 3 10c  Rx d 8 63 F8 FF FF 86 03 3E 77 
1503.560086 1 199  Rx d 8 EC F8 85 3F FF FF FF FF 
1503.560217 3 245  Rx d 8 49 F1 C7 46 C5 46 47 29 
1503.560324 1 379  Rx d 8 C8 00 00 00 15 00 00 44 
1503.560455 3 2d5  Rx d 8 32 F8 27 10 00 8A FF FF 
1503.560561 1 389  Rx d 8 FC FF 44 FF 07 FF 28 FF 
1503.560701 3 352  Rx d 8 2F F7 80 00 FF 80 00 FF 
1503.560807 1 2e9  Rx d 8 88 F8 00 00 05 B4 00 FF 
1503.560946 3 342  Rx d 8 A5 F7 80 00 80 00 00 01 
1503.561053 1 352  Rx d 8 2F F7 80 00 FF 80 00 FF 
1503.561184 3 346  Rx d 8 BF F7 14 55 FF FF FF FF 
1503.561290 1 342  Rx d 8 A5 F7 80 00 80 00 00 01 
1503.561421 3 262  Rx d 8 80 00 80 00 AF F4 AD F1 
1503.561667 3 142  Rx d 8 1F 0B 2E 7E FF FF FF FF 
1503.561905 3 2e9  Rx d 8 88 F8 00 00 05 B4 00 FF 
1503.561929 1 142  Rx d 8 1F 0B 2E 7E FF FF FF FF 
1503.562142 3 379  Rx d 8 C8 00 00 00 15 00 00 44 
1503.562380 3 389  Rx d 8 FC FF 44 FF 07 FF 28 FF 
1503.562626 3 3e2  Rx d 8 75 FB 7C C1 00 F8 FD F4 
1503.562863 3 362  Rx d 8 C0 FB 3E 8F FF 00 03 FF 
1503.562880 1 3e2  Rx d 8 75 FB 7C C1 00 F8 FD F4 
1503.563150 1 362  Rx d 8 C0 FB 3E 8F FF 00 03 FF 
1503.563388 1 1f8  Rx d 8 C6 54 4E 20 41 07 D0 FF 
1503.563633 1 238  Rx d 8 CF 48 5C 00 FF FF FF FF 
1503.563658 3 1f8  Rx d 8 C6 54 4E 20 41 07 D0 FF 
1503.563871 1 2a8  Rx d 8 7B 7A 08 3E 07 62 FF FF 
1503.563895 3 238  Rx d 8 CF 48 5C 00 FF FF FF FF 
1503.564141 3 2bf  Rx d 8 03 93 13 81 40 FF 80 00 
1503.564395 1 2bf  Rx d 8 03 93 13 81 40 FF 80 00 
1503.564969 1 318  Rx d 8 FF FF F4 02 C0 00 00 00 
1503.565231 3 318  Rx d 8 FF FF F4 02 C0 00 00 00 
1503.566247 3 17e  Rx d 8 8F F8 E0 00 FF FF 7F 2D 
1503.566484 3 37e  Rx d 8 6B FB 7F 7F FC 80 CF FF 
1503.566509 1 17e  Rx d 8 8F F8 E0 00 FF FF 7F 2D 
1503.566746 1 37e  Rx d 8 6B FB 7F 7F FC 80 CF FF 
1503.567041 1 229  Rx d 8 38 5B D8 63 E8 1B A7 FF 
1503.567934 1 177  Rx d 8 D7 F9 0E 86 0E 87 FF FF 
1503.568172 1 176  Rx d 8 32 F9 0E 87 0E 86 FF FF 
1503.568409 1 1a9  Rx d 8 F8 01 FF 1C 23 FC 58 31 
1503.568426 3 176  Rx d 8 32 F9 0E 87 0E 86 FF FF 
1503.568647 1 214  Rx d 8 29 F9 EA E7 FF FF FF FF 
1503.568663 3 1a9  Rx d 8 F8 01 FF 1C 23 FC 58 31 
1503.568876 1 215  Rx d 8 5F 59 08 0A B5 C8 8A 02 
1503.569122 1 216  Rx d 8 7D F9 C0 00 C0 00 00 00 
1503.569130 3 215  Rx d 8 5F 59 08 0A B5 C8 8A 02 
1503.569368 1 218  Rx d 8 45 F9 2E FF FF FF FF FF 
1503.569409 3 216  Rx d 8 7D F9 C0 00 C0 00 00 00 
1503.569597 1 269  Rx d 8 7A 0D 00 48 FF 4E 20 FF 
1503.569769 3 106  Rx d 8 75 79 0C 21 3F 0C FC FF 
1503.569835 1 375  Rx d 8 47 F9 CA FA FF FF FF FF 
1503.570015 3 107  Rx d 8 75 F9 E5 FF FF FF FF FF 
1503.570072 1 3a9  Rx d 8 DC 21 28 00 C0 00 FF 7F 
1503.570261 3 10e  Rx d 8 0F FC F8 FF FF FF FF FF 
1503.570318 1 219  Rx d 8 10 FD 01 FF 01 FF BF FF 
1503.570506 3 11b  Rx d 8 D7 30 FF FF FF FF FF FF 
1503.570556 1 165  Rx d 8 07 DD 00 00 FF FF FF FF 
1503.570736 3 108  Rx d 8 BA F8 FE F0 C0 20 16 20 
1503.570801 1 11b  Rx d 8 D7 30 FF FF FF FF FF FF 
1503.570982 3 211  Rx d 8 03 3E CE FF FF FF FF FF 
1503.571031 1 108  Rx d 8 BA F8 FE F0 C0 20 16 20 
1503.571211 3 269  Rx d 8 7A 0D 00 48 FF 4E 20 FF 
1503.571276 1 51b  Rx d 8 1B 00 00 20 00 00 00 00 
1503.571457 3 352  Rx d 8 73 F8 80 00 FF 80 00 FF 
1503.571514 1 5e0  Rx d 8 1E 0C F7 0C F7 0C F8 1D 
1503.571702 3 342  Rx d 8 F9 F8 80 00 80 00 00 01 
1503.571760 1 352  Rx d 8 73 F8 80 00 FF 80 00 FF 
1503.571948 3 346  Rx d 8 E3 F8 14 55 FF FF FF FF 
1503.572047 1 342  Rx d 8 F9 F8 80 00 80 00 00 01 
1503.572186 3 262  Rx d 8 80 00 80 00 AF F4 AD F1 
1503.572423 3 102  Rx d 8 2F 06 00 E0 00 FF FF FF 
1503.572661 3 3a9  Rx d 8 DC 21 28 00 C0 00 FF 7F 
1503.572685 1 102  Rx d 8 2F 06 00 E0 00 FF FF FF 
1503.572915 3 219  Rx d 8 10 FD 01 FF 01 FF BF FF 
1503.573283 1 1f8  Rx d 8 9B 55 4E 20 41 07 D0 FF 
1503.573554 3 1f8  Rx d 8 9B 55 4E 20 41 07 D0 FF 
1503.573734 1 348  Rx d 8 3A 10 27 10 00 00 FF FF 
1503.576249 3 17e  Rx d 8 D2 F9 E0 00 FF FF 7F 2D 
1503.576511 1 17e  Rx d 8 D2 F9 E0 00 FF FF 7F 2D 
1503.576749 1 286  Rx d 8 77 FB 0E 88 00 03 00 8C 
1503.576904 3 85  Rx d 8 94 FD 01 00 FC FF FF FF 
1503.576986 1 229  Rx d 8 B6 5C D8 63 E8 1B A7 FF 
1503.577224 1 85  Rx d 8 94 FD 01 00 FC FF FF FF 
1503.577937 1 209  Rx d 8 C1 F2 0E 50 4E 10 70 5E 
1503.578182 1 126  Rx d 8 31 F2 00 D1 01 FB FF FF 
1503.578420 1 125  Rx d 8 C0 F2 02 69 05 8B FF FF 
1503.578666 1 174  Rx d 8 13 F2 7F F9 FF FF FF FF 
1503.578895 1 205  Rx d 8 DC F2 2B 1F EC F2 EC F7 
1503.578936 3 174  Rx d 8 13 F2 7F F9 FF FF FF FF 
1503.579133 1 206  Rx d 8 59 F2 E0 04 FF FF FF FF 
1503.579354 1 245  Rx d 8 AE F2 C7 46 C5 46 47 29 
1503.579600 3 245  Rx d 8 AE F2 C7 46 C5 46 47 29 
1503.579714 1 20b  Rx d 8 9E F3 17 95 48 A0 D2 52 
1503.579837 3 112  Rx d 8 B9 F7 FF FF FA FC FF FF 
1503.580066 3 20b  Rx d 8 9E F3 17 95 48 A0 D2 52 
1503.580099 1 112  Rx d 8 B9 F7 FF FF FA FC FF FF 
1503.580509 3 352  Rx d 8 2E F9 80 00 FF 80 00 FF 
1503.580755 3 342  Rx d 8 A4 F9 80 00 80 00 00 01 
1503.580779 1 352  Rx d 8 2E F9 80 00 FF 80 00 FF 
1503.580992 3 346  Rx d 8 BE F9 14 55 FF FF FF FF 
1503.581041 1 342  Rx d 8 A4 F9 80 00 80 00 00 01 
1503.581230 3 262  Rx d 8 80 00 80 00 AF F4 AD F1 
1503.581508 3 142  Rx d 8 91 0C 2E 7E FF FF FF FF 
1503.581746 3 3e2  Rx d 8 FB FC 7C C1 00 F8 FD F4 
1503.581762 1 142  Rx d 8 91 0C 2E 7E FF FF FF FF 
1503.581983 3 362  Rx d 8 4E FC 3E 8F FF 00 03 FF 
1503.582033 1 3e2  Rx d 8 FB FC 7C C1 00 F8 FD F4 
1503.582295 1 362  Rx d 8 4E FC 3E 8F FF 00 03 FF 
1503.583278 1 1f8  Rx d 8 7C 56 4E 20 41 07 D0 FF 
1503.583515 1 238  Rx d 8 CF 48 5C 00 FF FF FF FF 
1503.583548 3 1f8  Rx d 8 7C 56 4E 20 41 07 D0 FF 
1503.583761 1 2a8  Rx d 8 26 7B 08 3E 07 62 FF FF 
1503.583786 3 238  Rx d 8 CF 48 5C 00 FF FF FF FF 
1503.586227 3 17e  Rx d 8 35 FA E0 00 FF FF 7F 2D 
1503.586473 3 37e  Rx d 8 E5 FC 7F 7F FC 80 CF FF 
1503.586489 1 17e  Rx d 8 35 FA E0 00 FF FF 7F 2D 
1503.586735 1 37e  Rx d 8 E5 FC 7F 7F FC 80 CF FF 
1503.587038 1 229  Rx d 8 EB 5D D8 63 E8 1B A7 FF 
1503.587210 3 40d  Rx d 8 FF FF 63 10 00 00 00 80 
1503.587292 1 3d0  Rx d 8 00 04 C0 00 00 00 00 00 
1503.588332 1 1a9  Rx d 8 F8 01 FF 1C 23 FC 58 31 
1503.588562 1 269  Rx d 8 9D 0E 00 48 FF 4E 20 FF 
1503.588586 3 1a9  Rx d 8 F8 01 FF 1C 23 FC 58 31 
1503.588799 1 3a9  Rx d 8 DC 21 28 00 C0 00 FF 7F 
1503.588824 3 269  Rx d 8 9D 0E 00 48 FF 4E 20 FF 
1503.589045 1 219  Rx d 8 F7 FE 01 FF 01 FF BF FF 
1503.589061 3 3a9  Rx d 8 DC 21 28 00 C0 00 FF 7F 
1503.589282 1 165  Rx d 8 E0 DE 00 00 FF FF FF FF 
1503.589315 3 219  Rx d 8 F7 FE 01 FF 01 FF BF FF 
1503.589790 3 106  Rx d 8 92 7A 0C 21 3F 0C FC FF 
1503.589979 1 319  Rx d 8 FF FF FF FF FA 49 5C 49 
1503.590036 3 107  Rx d 8 92 FA E5 FF FF FF FF FF 
1503.590274 3 109  Rx d 8 B0 37 CE C0 FF FF FF FF 
1503.590519 3 11b  Rx d 8 D7 30 FF FF FF FF FF FF 
1503.590757 3 211  Rx d 8 03 3E CE FF FF FF FF FF 
1503.590773 1 11b  Rx d 8 D7 30 FF FF FF FF FF FF 
1503.591003 3 352  Rx d 8 C9 FA 80 00 FF 80 00 FF 
1503.591240 3 342  Rx d 8 43 FA 80 00 80 00 00 01 
1503.591265 1 352  Rx d 8 C9 FA 80 00 FF 80 00 FF 
1503.591478 3 346  Rx d 8 59 FA 14 55 FF FF FF FF 
1503.591527 1 342  Rx d 8 43 FA 80 00 80 00 00 01 
1503.591715 3 262  Rx d 8 80 00 80 00 AF F4 AD F1 
1503.591961 3 102  Rx d 8 72 07 00 E0 00 FF FF FF 
1503.592223 1 102  Rx d 8 72 07 00 E0 00 FF FF FF 
1503.593206 1 1f8  Rx d 8 21 57 4E 20 41 07 D0 FF 
1503.593460 1 438  Rx d 8 00 00 00 00 00 40 00 C0 
1503.593477 3 1f8  Rx d 8 21 57 4E 20 41 07 D0 FF 
1503.593731 3 438  Rx d 8 00 00 00 00 00 40 00 C0 
1503.595697 1 288  Rx d 8 00 FC FF FF FF FF FF FF 
1503.595926 1 286  Rx d 8 93 FC 0E 89 00 03 00 8C 
1503.596360 3 17e  Rx d 8 68 FB E0 00 FF FF 7F 2D 
1503.596623 1 17e  Rx d 8 68 FB E0 00 FF FF 7F 2D 
1503.596860 1 229  Rx d 8 0C 5E D8 63 E8 1B A7 FF 
1503.596909 3 85  Rx d 8 73 FE 01 00 FC FF FF FF 
1503.597171 1 85  Rx d 8 73 FE 01 00 FC FF FF FF 
1503.597933 1 209  Rx d 8 9C F3 0E 50 4E 10 70 5E 
1503.598163 1 126  Rx d 8 6C F3 00 D1 01 FB FF FF 
1503.598400 1 125  Rx d 8 12 F3 02 69 05 8A FF FF 
1503.598638 1 174  Rx d 8 4E F3 7F F9 FF FF FF FF 
1503.598867 1 205  Rx d 8 97 F3 2B 11 EC F2 EC F7 
1503.598908 3 174  Rx d 8 4E F3 7F F9 FF FF FF FF 
1503.599113 1 206  Rx d 8 04 F3 E0 04 FF FF FF FF 
1503.599342 1 245  Rx d 8 F3 F3 C7 46 C5 46 47 29 
1503.599588 3 245  Rx d 8 F3 F3 C7 46 C5 46 47 29 
1503.600514 3 352  Rx d 8 94 FB 80 00 FF 80 00 FF 
1503.600759 3 342  Rx d 8 1E FB 80 00 80 00 00 01 
1503.600784 1 352  Rx d 8 94 FB 80 00 FF 80 00 FF 
1503.600997 3 346  Rx d 8 04 FB 14 55 FF FF FF FF 
1503.601054 1 342  Rx d 8 1E FB 80 00 80 00 00 01 
1503.601235 3 262  Rx d 8 80 00 80 00 AF F4 AD F1 
1503.601505 3 142  Rx d 8 CC 0D 2E 7E FF FF FF FF 
1503.601743 3 3e2  Rx d 8 A6 FD 7C C1 00 F8 FD F4 
1503.601767 1 142  Rx d 8 CC 0D 2E 7E FF FF FF FF 
1503.601988 3 362  Rx d 8 13 FD 3E 8F FF 00 03 FF 
1503.602029 1 3e2  Rx d 8 A6 FD 7C C1 00 F8 FD F4 
1503.602283 1 362  Rx d 8 13 FD 3E 8F FF 00 03 FF 
1503.603209 1 1f8  Rx d 8 7D 58 4E 20 41 07 D0 FF 
1503.603455 1 238  Rx d 8 CF 48 5C 00 FF FF FF FF 
1503.603479 3 1f8  Rx d 8 7D 58 4E 20 41 07 D0 FF 
1503.603692 1 2a8  Rx d 8 A8 7C 08 3E 07 62 FF FF 
1503.603717 3 238  Rx d 8 CF 48 5C 00 FF FF FF FF 
1503.603922 1 20a  Rx d 8 92 F6 03 BC 4F 28 F0 FF 
1503.604176 3 20a  Rx d 8 92 F6 03 BC 4F 28 F0 FF 
1503.606322 3 17e  Rx d 8 E6 FC E0 00 FF FF 7F 2D 
1503.606559 3 37e  Rx d 8 B8 FD 7F 7F FC 80 CF FF 
1503.606584 1 17e  Rx d 8 E6 FC E0 00 FF FF 7F 2D 
1503.606822 1 37e  Rx d 8 B8 FD 7F 7F FC 80 CF FF 
1503.607329 1 229  Rx d 8 0D 50 D8 63 E8 1B A7 FF 
1503.608779 1 1a9  Rx d 8 F8 01 FF 1C 23 FC 58 31 
1503.609017 1 269  Rx d 8 9C 00 00 48 FF 4E 20 FF 
1503.609033 3 1a9  Rx d 8 F8 01 FF 1C 23 FC 58 31 
1503.609246 1 3a9  Rx d 8 DC 21 28 00 C0 00 FF 7F 
1503.609271 3 269  Rx d 8 9C 00 00 48 FF 4E 20 FF 
1503.609492 1 219  Rx d 8 F6 F0 01 FF 01 FF BF FF 
1503.609509 3 3a9  Rx d 8 DC 21 28 00 C0 00 FF 7F 
1503.609738 1 165  Rx d 8 E1 D0 00 00 FF FF FF FF 
1503.609762 3 219  Rx d 8 F6 F0 01 FF 01 FF BF FF 
1503.609975 1 1b9  Rx d 8 FF 00 7E 00 FE 01 FE 00 
1503.610008 3 105  Rx d 8 D9 F9 C4 F3 FF FF FF FF 
1503.610205 1 2d5  Rx d 8 6F F9 27 10 00 8A FF FF 
1503.610238 3 106  Rx d 8 CF 7B 0C 21 3F 0C FC FF 
1503.610451 1 199  Rx d 8 B1 F9 85 3F FF FF FF FF 
1503.610483 3 107  Rx d 8 CF FB E5 FF FF FF FF FF 
1503.610688 1 379  Rx d 8 C8 00 00 00 15 00 00 44 
1503.610729 3 11b  Rx d 8 D7 30 FF FF FF FF FF FF 
1503.610926 1 389  Rx d 8 FC FF 44 FF 07 FF 28 FF 
1503.610967 3 12f  Rx d 8 B3 F9 F0 CC FF FF FF FF 
1503.611163 1 11b  Rx d 8 D7 30 FF FF FF FF FF FF 
1503.611204 3 1b9  Rx d 8 FF 00 7E 00 FE 01 FE 00 
1503.611409 1 12f  Rx d 8 B3 F9 F0 CC FF FF FF FF 
1503.611450 3 211  Rx d 8 03 3E CE FF FF FF FF FF 
1503.611647 1 2e9  Rx d 8 D5 F9 00 00 05 B4 00 FF 
1503.611688 3 2d5  Rx d 8 6F F9 27 10 00 8A FF FF 
1503.611892 1 287  Rx d 8 00 00 00 F8 FF FF FF FF 
1503.611933 3 352  Rx d 8 1A FC 80 00 FF 80 00 FF 
1503.612138 1 2f5  Rx d 8 09 FC 0F FF F8 1D F8 1D 
1503.612171 3 2e9  Rx d 8 D5 F9 00 00 05 B4 00 FF 
1503.612384 1 352  Rx d 8 1A FC 80 00 FF 80 00 FF 
1503.612417 3 342  Rx d 8 90 FC 80 00 80 00 00 01 
1503.612630 1 3e0  Rx d 8 4C FC 00 00 64 00 00 FF 
1503.612654 3 346  Rx d 8 8A FC 14 55 FF FF FF FF 
1503.612867 1 2a1  Rx d 8 1E FC FC 00 41 88 00 00 
1503.612892 3 262  Rx d 8 80 00 80 00 AF F4 AD F1 
1503.613113 1 2aa  Rx d 8 5C CC 40 FF FF FF FF FF 
1503.613138 3 102  Rx d 8 2E 08 00 E0 00 FF FF FF 
1503.613351 1 1f8  Rx d 8 20 59 4E 20 41 07 D0 FF 
1503.613383 3 2a1  Rx d 8 1E FC FC 00 41 88 00 00 
1503.613596 1 220  Rx d 8 CA CC F8 FF FF FF FF FF 
1503.613621 3 379  Rx d 8 C8 00 00 00 15 00 00 44 
1503.613842 1 102  Rx d 8 2E 08 00 E0 00 FF FF FF 
1503.613867 3 1f8  Rx d 8 20 59 4E 20 41 07 D0 FF 
1503.614088 1 342  Rx d 8 90 FC 80 00 80 00 00 01 
1503.614104 3 389  Rx d 8 FC FF 44 FF 07 FF 28 FF 
1503.614334 1 479  Rx d 8 00 FF FF FF 00 00 C0 FF 
1503.614342 3 3e0  Rx d 8 4C FC 00 00 64 00 00 FF 
1503.614596 3 2aa  Rx d 8 5C CC 40 FF FF FF FF FF 
1503.614817 1 286  Rx d 8 1A FD 0E 8B 00 03 00 8C 
1503.614833 3 2ab  Rx d 8 33 94 F1 FF FF FF FF FF 
1503.615071 1 318  Rx d 8 FF FF F4 02 C0 00 00 00 
1503.615087 3 20c  Rx d 8 20 F3 FF 01 24 0F FF FF 
1503.615308 1 2ab  Rx d 8 33 94 F1 FF FF FF FF FF 
1503.615325 3 2bf  Rx d 8 03 93 13 81 40 FF 80 00 
1503.615554 1 20c  Rx d 8 20 F3 FF 01 24 0F FF FF 
1503.615571 3 3c7  Rx d 8 EC FF FF 00 1F 41 FF FF 
1503.615800 1 2bf  Rx d 8 03 93 13 81 40 FF 80 00 
1503.615808 3 403  Rx d 8 33 FC 23 E4 23 00 00 3F 
1503.616054 3 432  Rx d 8 96 13 00 FF FF FF FF FF 
1503.616070 1 403  Rx d 8 33 FC 23 E4 23 00 00 3F 
1503.616291 3 17e  Rx d 8 BB FD E0 00 FF FF 7F 2D 
1503.616316 1 432  Rx d 8 96 13 00 FF FF FF FF FF 
1503.616537 3 479  Rx d 8 00 FF FF FF 00 00 C0 FF 
1503.616554 1 17e  Rx d 8 BB FD E0 00 FF FF 7F 2D 
1503.616799 3 318  Rx d 8 FF FF F4 02 C0 00 00 00 
1503.616832 1 229  Rx d 8 50 51 D8 63 E8 1B A7 FF 
1503.617037 3 85  Rx d 8 72 F0 01 00 FC FF FF FF 
1503.617299 1 85  Rx d 8 72 F0 01 00 FC FF FF FF 
1503.618471 1 330  Rx d 8 DA FC 00 FF FF FF FF FF 
1503.618700 1 177  Rx d 8 5A FA 0E 87 0E 87 FF FF 
1503.618938 1 126  Rx d 8 E2 F4 00 D1 01 FB FF FF 
1503.619167 1 125  Rx d 8 9C F4 02 69 05 8A FF FF 
1503.619413 1 174  Rx d 8 C0 F4 7F F9 FF FF FF FF 
1503.619642 1 176  Rx d 8 D5 FA 0E 87 0E 86 FF FF 
1503.619683 3 174  Rx d 8 C0 F4 7F F9 FF FF FF FF 
1503.619871 1 205  Rx d 8 19 F4 2B 11 EC F2 EC F7 
1503.619921 3 109  Rx d 8 EC 38 CE C0 FF FF FF FF 
1503.620117 1 206  Rx d 8 8A F4 E0 04 FF FF FF FF 
1503.620150 3 176  Rx d 8 D5 FA 0E 87 0E 86 FF FF 
1503.620347 1 209  Rx d 8 12 F4 0E 50 4E 10 70 5E 
1503.620387 3 20d  Rx d 8 48 F9 FF 01 24 0F FF FF 
1503.620592 1 214  Rx d 8 CE FA EA E7 FF FF FF FF 
1503.620625 3 108  Rx d 8 E7 F9 FE F0 C0 20 16 20 
1503.620822 1 215  Rx d 8 B8 5A 08 0A B5 C8 8A 02 
1503.620871 3 352  Rx d 8 47 FD 80 00 FF 80 00 FF 
1503.621051 1 108  Rx d 8 E7 F9 FE F0 C0 20 16 20 
1503.621100 3 215  Rx d 8 B8 5A 08 0A B5 C8 8A 02 
1503.621297 1 216  Rx d 8 9A FA C0 00 C0 00 00 00 
1503.621346 3 342  Rx d 8 CD FD 80 00 80 00 00 01 
1503.621534 1 218  Rx d 8 A2 FA 2E FF FF FF FF FF 
1503.621584 3 216  Rx d 8 9A FA C0 00 C0 00 00 00 
1503.621780 1 225  Rx d 8 26 0C 00 00 00 00 00 F8 
1503.621821 3 346  Rx d 8 D7 FD 14 55 FF FF FF FF 
1503.622010 1 245  Rx d 8 7D F4 C7 46 C5 46 47 29 
1503.622059 3 262  Rx d 8 80 00 80 00 AF F4 AD F1 
1503.622255 1 248  Rx d 8 49 FC 00 00 00 00 FC FF 
1503.622296 3 142  Rx d 8 2B 0E 2E 7E FF FF FF FF 
1503.622493 1 249  Rx d 8 35 FC 00 00 FF FF FF FF 
1503.622526 3 245  Rx d 8 7D F4 C7 46 C5 46 47 29 
1503.622739 1 305  Rx d 8 71 7C 2D 11 FF FF FF FF 
1503.622771 3 3e2  Rx d 8 41 FE 7C C1 00 F8 FD F4 
1503.622976 1 142  Rx d 8 2B 0E 2E 7E FF FF FF FF 
1503.623009 3 362  Rx d 8 F4 FE 3E 8F FF 00 03 FF 
1503.623214 1 1f8  Rx d 8 C7 5A 4E 20 41 07 D0 FF 
1503.623459 1 238  Rx d 8 CF 48 5C 00 FF FF FF FF 
1503.623484 3 1f8  Rx d 8 C7 5A 4E 20 41 07 D0 FF 
1503.623697 1 2a8  Rx d 8 F5 7D 08 3E 07 62 FF FF 
1503.623722 3 238  Rx d 8 CF 48 5C 00 FF FF FF FF 
1503.623935 1 332  Rx d 8 C1 FC 00 BA 46 FF FF FF 
1503.624180 1 342  Rx d 8 CD FD 80 00 80 00 00 01 
1503.624426 1 348  Rx d 8 3A 0C 27 10 00 00 FF FF 
1503.624672 1 352  Rx d 8 47 FD 80 00 FF 80 00 FF 
1503.624909 1 375  Rx d 8 A0 FA CA FA FF FF FF FF 
1503.625147 1 3e2  Rx d 8 41 FE 7C C1 00 F8 FD F4 
1503.625393 1 455  Rx d 8 93 FC 00 00 00 FF FF FF 
1503.625639 1 362  Rx d 8 F4 FE 3E 8F FF 00 03 FF 
1503.625663 3 455  Rx d 8 93 FC 00 00 00 FF FF FF 
1503.625868 1 5e0  Rx d 8 1F 0C F7 0C F5 0C F7 1D 
1503.626097 1 5e1  Rx d 8 01 46 46 45 46 45 46 46 
1503.626319 3 17e  Rx d 8 5C FE E0 00 FF FF 7F 2D 
1503.626335 1 5e2  Rx d 8 00 00 00 5A 01 73 00 00 
1503.626556 3 37e  Rx d 8 EB FE 7F 7F FC 80 DF FF 
1503.626572 1 5e3  Rx d 8 1F 43 E0 00 00 00 3F C9 
1503.626818 1 17e  Rx d 8 5C FE E0 00 FF FF 7F 2D 
1503.627056 1 37e  Rx d 8 EB FE 7F 7F FC 80 DF FF 
1503.627285 1 229  Rx d 8 B7 52 D8 63 E8 1B A7 FF 
1503.627523 1 5e4  Rx d 8 71 0C 00 00 40 45 44 45 
1503.628375 1 1a9  Rx d 8 F8 01 FF 1C 23 FC 58 31 
1503.628612 1 269  Rx d 8 C1 01 00 48 FF 4E 20 FF 
1503.628629 3 1a9  Rx d 8 F8 01 FF 1C 23 FC 58 31 
1503.628842 1 3a9  Rx d 8 DC 21 28 00 C0 00 FF 7F 
1503.628866 3 269  Rx d 8 C1 01 00 48 FF 4E 20 FF 
1503.629087 1 219  Rx d 8 AB F1 01 FF 01 FF BF FF 
1503.629104 3 3a9  Rx d 8 DC 21 28 00 C0 00 FF 7F 
1503.629325 1 165  Rx d 8 BC D1 00 00 FF FF FF FF 
1503.629358 3 219  Rx d 8 AB F1 01 FF 01 FF BF FF 
1503.629776 3 106  Rx d 8 41 7C 0C 21 3F 0C FC FF 
1503.630021 3 107  Rx d 8 41 FC E5 FF FF FF FF FF 
1503.630259 3 11b  Rx d 8 D7 30 FF FF FF FF FF FF 
1503.630505 3 211  Rx d 8 03 3E CE FF FF FF FF FF 
1503.630521 1 11b  Rx d 8 D7 30 FF FF FF FF FF FF 
1503.630750 3 352  Rx d 8 A0 FE 80 00 FF 80 00 FF 
1503.630996 3 342  Rx d 8 2A FE 80 00 80 00 00 01 
1503.631021 1 352  Rx d 8 A0 FE 80 00 FF 80 00 FF 
1503.631234 3 346  Rx d 8 30 FE 14 55 FF FF FF FF 
1503.631283 1 342  Rx d 8 2A FE 80 00 80 00 00 01 
1503.631471 3 262  Rx d 8 80 00 80 00 AF F4 AD F1 
1503.631709 3 102  Rx d 8 73 09 00 E0 00 FF FF FF 
1503.632020 1 102  Rx d 8 73 09 00 E0 00 FF FF FF 
1503.633126 1 1f8  Rx d 8 9A 5B 4E 20 41 07 D0 FF 
1503.633396 3 1f8  Rx d 8 9A 5B 4E 20 41 07 D0 FF 
1503.633831 1 286  Rx d 8 F6 FE 0E 8C 00 03 00 8C 
1503.636321 3 17e  Rx d 8 5D F0 E0 00 FF FF 7F 2D 
1503.636575 1 17e  Rx d 8 5D F0 E0 00 FF FF 7F 2D 
1503.636829 1 229  Rx d 8 EA 53 D8 63 E8 1B A7 FF 
1503.636911 3 85  Rx d 8 2F F1 01 00 FC FF FF FF 
1503.637181 1 85  Rx d 8 2F F1 01 00 FC FF FF FF 
1503.637222 3 225  Rx d 8 FF FF FF FF AF FF FF FF 
1503.637427 1 3d0  Rx d 8 00 04 C0 00 00 00 00 00 
1503.637484 3 201  Rx d 8 1A F8 7F FF FF FF FF FF 
1503.637681 1 201  Rx d 8 1A F8 7F FF FF FF FF FF 
1503.637738 3 40d  Rx d 8 FF FF 63 10 00 00 00 80 
1503.638434 1 209  Rx d 8 4F F5 0E 50 4E 10 70 5E 
1503.638672 1 126  Rx d 8 BF F5 00 D1 01 FB FF FF 
1503.638910 1 125  Rx d 8 C1 F5 02 69 05 8A FF FF 
1503.639147 1 174  Rx d 8 9D F5 7F F9 FF FF FF FF 
1503.639377 1 205  Rx d 8 44 F5 2B 11 EC F2 EC F7 
1503.639418 3 174  Rx d 8 9D F5 7F F9 FF FF FF FF 
1503.639622 1 206  Rx d 8 D7 F5 E0 04 FF FF FF FF 
1503.639843 1 245  Rx d 8 20 F5 C7 46 C5 46 47 29 
1503.640089 1 319  Rx d 8 FF FF FF FF FA 49 5C 49 
1503.640097 3 245  Rx d 8 20 F5 C7 46 C5 46 47 29 
1503.640507 3 352  Rx d 8 A1 F0 80 00 FF 80 00 FF 
1503.640753 3 342  Rx d 8 2B F0 80 00 80 00 00 01 
1503.640777 1 352  Rx d 8 A1 F0 80 00 FF 80 00 FF 
1503.640990 3 346  Rx d 8 31 F0 14 55 FF FF FF FF 
1503.641040 1 342  Rx d 8 2B F0 80 00 80 00 00 01 
1503.641228 3 262  Rx d 8 80 00 80 00 AF F4 AD F1 
1503.641506 3 142  Rx d 8 2A 00 2E 7E FF FF FF FF 
1503.641752 3 3e2  Rx d 8 40 F0 7C C1 00 F8 FD F4 
1503.641769 1 142  Rx d 8 2A 00 2E 7E FF FF FF FF 
1503.641990 3 362  Rx d 8 F5 F0 3E 8F FF 00 03 FF 
1503.642031 1 3e2  Rx d 8 40 F0 7C C1 00 F8 FD F4 
1503.642285 1 362  Rx d 8 F5 F0 3E 8F FF 00 03 FF 
1503.643079 1 1f8  Rx d 8 14 5C 4E 20 41 07 D0 FF 
1503.643317 1 238  Rx d 8 CF 48 5C 00 FF FF FF FF 
1503.643341 3 1f8  Rx d 8 14 5C 4E 20 41 07 D0 FF 
1503.643563 1 2a8  Rx d 8 12 7E 08 3E 07 62 FF FF 
1503.643587 3 238  Rx d 8 CF 48 5C 00 FF FF FF FF 
1503.646250 3 17e  Rx d 8 00 F1 E0 00 FF FF 7F 2D 
1503.646487 3 37e  Rx d 8 75 F0 7F 7F FC 80 BF FF 
1503.646512 1 17e  Rx d 8 00 F1 E0 00 FF FF 7F 2D 
1503.646749 1 37e  Rx d 8 75 F0 7F 7F FC 80 BF FF 
1503.647036 1 229  Rx d 8 64 54 D8 63 E8 1B A7 FF 
1503.648330 1 1a9  Rx d 8 F8 01 FF 1C 23 FC 58 31 
1503.648576 1 269  Rx d 8 26 02 00 48 FF 4E 20 FF 
1503.648593 3 1a9  Rx d 8 F8 01 FF 1C 23 FC 58 31 
1503.648806 1 3a9  Rx d 8 DC 21 28 00 C0 00 FF 7F 
1503.648838 3 269  Rx d 8 26 02 00 48 FF 4E 20 FF 
1503.649043 1 219  Rx d 8 4C F2 01 FF 01 FF BF FF 
1503.649068 3 3a9  Rx d 8 DC 21 28 00 C0 00 FF 7F 
1503.649289 1 165  Rx d 8 5B D2 00 00 FF FF FF FF 
1503.649322 3 219  Rx d 8 4C F2 01 FF 01 FF BF FF 
1503.649813 3 106  Rx d 8 1C 7D 0C 21 3F 0C FC FF 
1503.650059 3 107  Rx d 8 1C FD E5 FF FF FF FF FF 
1503.650296 3 109  Rx d 8 B1 39 CE C0 FF FF FF FF 
1503.650534 3 10a  Rx d 8 98 F9 A4 B3 00 FF FF FF 
1503.650755 1 406  Rx d 8 B3 F8 00 FF FF FF FF FF 
1503.650772 3 11b  Rx d 8 D7 30 FF FF FF FF FF FF 
1503.650993 1 10a  Rx d 8 98 F9 A4 B3 00 FF FF FF 
1503.651009 3 211  Rx d 8 03 3E CE FF FF FF FF FF 
1503.651230 1 11b  Rx d 8 D7 30 FF FF FF FF FF FF 
1503.651255 3 352  Rx d 8 FC F1 80 00 FF 80 00 FF 
1503.651501 3 342  Rx d 8 76 F1 80 00 80 00 00 01 
1503.651525 1 352  Rx d 8 FC F1 80 00 FF 80 00 FF 
1503.651730 3 346  Rx d 8 6C F1 14 55 FF FF FF FF 
1503.651779 1 342  Rx d 8 76 F1 80 00 80 00 00 01 
1503.651968 3 262  Rx d 8 80 00 80 00 AF F4 AD F1 
1503.652213 3 102  Rx d 8 94 0A 00 E0 00 FF FF FF 
1503.652459 3 406  Rx d 8 B3 F8 00 FF FF FF FF FF 
1503.652476 1 102  Rx d 8 94 0A 00 E0 00 FF FF FF 
1503.652697 3 41d  Rx d 8 88 3F FF B9 C2 BF FF FF 
1503.652787 1 286  Rx d 8 F7 F0 0E 8C 00 03 00 8C 
1503.652951 3 501  Rx d 8 01 10 00 20 FF FF FF FF 
1503.653049 1 1f8  Rx d 8 49 5D 4E 20 41 07 D0 FF 
1503.653319 3 1f8  Rx d 8 49 5D 4E 20 41 07 D0 FF 
1503.656350 3 17e  Rx d 8 E7 F2 E0 00 FF FF 7F 2D 
1503.656613 1 17e  Rx d 8 E7 F2 E0 00 FF FF 7F 2D 
1503.656907 3 85  Rx d 8 C8 F2 01 00 FC FF FF FF 
1503.656965 1 229  Rx d 8 39 55 D8 63 E8 1B A7 FF 
1503.657211 1 85  Rx d 8 C8 F2 01 00 FC FF FF FF 
1503.657997 1 1b9  Rx d 8 FF 00 7E 00 FE 01 FE 00 
1503.658235 1 2d5  Rx d 8 88 FA 27 10 00 8A FF FF 
1503.658259 3 1b9  Rx d 8 FF 00 7E 00 FE 01 FE 00 
1503.658472 1 199  Rx d 8 56 FA 85 3F FF FF FF FF 
1503.658497 3 2d5  Rx d 8 88 FA 27 10 00 8A FF FF 
1503.658710 1 379  Rx d 8 C8 00 00 00 15 00 00 44 
1503.658947 1 209  Rx d 8 A8 F6 0E 50 4E 10 70 5E 
1503.659005 3 379  Rx d 8 C8 00 00 00 15 00 00 44 
1503.659185 1 126  Rx d 8 58 F6 00 D1 01 FB FF FF 
1503.659414 1 125  Rx d 8 26 F6 02 69 05 8A FF FF 
1503.659660 1 174  Rx d 8 7A F6 7F F9 FF FF FF FF 
1503.659766 3 10c  Rx d 8 3E F9 FF FF 86 03 3E 77 
1503.659889 1 205  Rx d 8 A3 F6 2B 11 EC F2 EC F7 
1503.660012 3 174  Rx d 8 7A F6 7F F9 FF FF FF FF 
1503.660135 1 206  Rx d 8 30 F6 E0 04 FF FF FF FF 
1503.660356 1 245  Rx d 8 C7 F6 C7 46 C5 46 47 29 
1503.660512 3 352  Rx d 8 1B F2 80 00 FF 80 00 FF 
1503.660594 1 389  Rx d 8 FC FF 44 FF 07 FF 28 FF 
1503.660741 3 245  Rx d 8 C7 F6 C7 46 C5 46 47 29 
1503.660840 1 2e9  Rx d 8 32 FA 00 00 05 B4 00 FF 
1503.660979 3 342  Rx d 8 91 F2 80 00 80 00 00 01 
1503.661085 1 352  Rx d 8 1B F2 80 00 FF 80 00 FF 
1503.661216 3 346  Rx d 8 8B F2 14 55 FF FF FF FF 
1503.661331 1 342  Rx d 8 91 F2 80 00 80 00 00 01 
1503.661454 3 262  Rx d 8 80 00 80 00 AF F4 AD F1 
1503.661700 3 142  Rx d 8 77 01 2E 7E FF FF FF FF 
1503.661937 3 2e9  Rx d 8 32 FA 00 00 05 B4 00 FF 
1503.662011 1 142  Rx d 8 77 01 2E 7E FF FF FF FF 
1503.662175 3 389  Rx d 8 FC FF 44 FF 07 FF 28 FF 
1503.662421 3 3e2  Rx d 8 1D F1 7C C1 00 F8 FD F4 
1503.662658 3 362  Rx d 8 A8 F1 3E 8F FF 00 03 FF 
1503.662675 1 3e2  Rx d 8 1D F1 7C C1 00 F8 FD F4 
1503.662937 1 362  Rx d 8 A8 F1 3E 8F FF 00 03 FF 
1503.663174 1 1f8  Rx d 8 AE 5E 4E 20 41 07 D0 FF 
1503.663420 1 238  Rx d 8 CF 48 5C 00 FF FF FF FF 
1503.663445 3 1f8  Rx d 8 AE 5E 4E 20 41 07 D0 FF 
1503.663658 1 2a8  Rx d 8 13 70 08 3E 07 62 FF FF 
1503.663690 3 238  Rx d 8 CF 48 5C 00 FF FF FF FF 
1503.663936 3 2bf  Rx d 8 03 93 13 81 40 FF 80 00 
1503.664190 1 2bf  Rx d 8 03 93 13 81 40 FF 80 00 
1503.664952 1 318  Rx d 8 FF FF F4 02 C0 00 00 00 
1503.665222 3 318  Rx d 8 FF FF F4 02 C0 00 00 00 
1503.667074 1 229  Rx d 8 DE 56 D8 63 E8 1B A7 FF 
1503.667156 3 17e  Rx d 8 BA F3 E0 00 FF FF 7F 2D 
1503.667393 3 37e  Rx d 8 B7 F1 7F 7F FC 80 DF FF 
1503.667418 1 17e  Rx d 8 BA F3 E0 00 FF FF 7F 2D 
1503.667655 1 37e  Rx d 8 B7 F1 7F 7F FC 80 DF FF 
1503.668368 1 1a9  Rx d 8 F8 01 FF 1C 23 FC 58 31 
1503.668597 1 269  Rx d 8 7B 03 00 48 FF 4E 20 FF 
1503.668622 3 1a9  Rx d 8 F8 01 FF 1C 23 FC 58 31 
1503.668835 1 3a9  Rx d 8 DC 21 28 00 C0 00 FF 7F 
1503.668860 3 269  Rx d 8 7B 03 00 48 FF 4E 20 FF 
1503.669081 1 219  Rx d 8 11 F3 01 FF 01 FF BF FF 
1503.669097 3 3a9  Rx d 8 DC 21 28 00 C0 00 FF 7F 
1503.669318 1 165  Rx d 8 06 D3 00 00 FF FF FF FF 
1503.669359 3 219  Rx d 8 11 F3 01 FF 01 FF BF FF 
1503.669556 1 176  Rx d 8 88 FB 0E 87 0E 86 FF FF 
1503.669785 3 106  Rx d 8 FB 7E 0C 21 3F 0C FC FF 
1503.669785 1 177  Rx d 8 6D FB 0E 86 0E 87 FF FF 
1503.670031 1 214  Rx d 8 93 FB EA E7 FF FF FF FF 
1503.670031 3 107  Rx d 8 FB FE E5 FF FF FF FF FF 
1503.670252 1 215  Rx d 8 E5 5B 08 0A B5 C8 8A 02 
1503.670269 3 108  Rx d 8 00 FA FE F0 C0 20 16 20 
1503.670498 1 216  Rx d 8 C7 FB C0 00 C0 00 00 00 
1503.670523 3 10e  Rx d 8 0F FC F8 FF FF FF FF FF 
1503.670736 1 108  Rx d 8 00 FA FE F0 C0 20 16 20 
1503.670760 3 11b  Rx d 8 D7 30 FF FF FF FF FF FF 
1503.670981 1 218  Rx d 8 FF FB 2E FF FF FF FF FF 
1503.670989 3 176  Rx d 8 88 FB 0E 87 0E 86 FF FF 
1503.671227 1 11b  Rx d 8 D7 30 FF FF FF FF FF FF 
1503.671235 3 211  Rx d 8 03 3E CE FF FF FF FF FF 
1503.671456 3 215  Rx d 8 E5 5B 08 0A B5 C8 8A 02 
1503.671465 1 375  Rx d 8 FD FB CA FA FF FF FF FF 
1503.671694 1 5e0  Rx d 8 20 0C F7 0C F6 0C F7 1D 
1503.671702 3 216  Rx d 8 C7 FB C0 00 C0 00 00 00 
1503.671923 1 286  Rx d 8 C0 F1 0E 8D 00 03 00 8C 
1503.671940 3 352  Rx d 8 46 F3 80 00 FF 80 00 FF 
1503.672177 3 342  Rx d 8 CC F3 80 00 80 00 00 01 
1503.672202 1 352  Rx d 8 46 F3 80 00 FF 80 00 FF 
1503.672415 3 346  Rx d 8 D6 F3 14 55 FF FF FF FF 
1503.672464 1 342  Rx d 8 CC F3 80 00 80 00 00 01 
1503.672652 3 262  Rx d 8 80 00 80 00 AF F4 AD F1 
1503.672898 3 102  Rx d 8 C9 0B 00 E0 00 FF FF FF 
1503.673037 1 1f8  Rx d 8 AF 50 4E 20 41 07 D0 FF 
1503.673275 1 102  Rx d 8 C9 0B 00 E0 00 FF FF FF 
1503.673308 3 1f8  Rx d 8 AF 50 4E 20 41 07 D0 FF 
1503.673521 1 348  Rx d 8 3A 0C 27 10 00 00 FF FF 
1503.676830 1 229  Rx d 8 83 57 D8 63 E8 1B A7 FF 
1503.676904 3 85  Rx d 8 95 F3 01 00 FC FF FF FF 
1503.677174 1 85  Rx d 8 95 F3 01 00 FC FF FF FF 
1503.677256 3 17e  Rx d 8 34 F4 E0 00 FF FF 7F 2D 
1503.677519 1 17e  Rx d 8 34 F4 E0 00 FF FF 7F 2D 
1503.679190 1 209  Rx d 8 F5 F7 0E 50 4E 10 70 5E 
1503.679427 1 126  Rx d 8 05 F7 00 D1 01 FB FF FF 
1503.679657 1 125  Rx d 8 7B F7 02 69 05 8A FF FF 
1503.679763 3 109  Rx d 8 56 3A CE C0 FF FF FF FF 
1503.679902 1 174  Rx d 8 27 F7 7F F9 FF FF FF FF 
1503.680009 3 112  Rx d 8 E5 F8 FF FF FA FC FF FF 
1503.680132 1 205  Rx d 8 90 F7 0A 11 EC F2 EC F7 
1503.680255 3 174  Rx d 8 27 F7 7F F9 FF FF FF FF 
1503.680369 1 112  Rx d 8 E5 F8 FF FF FA FC FF FF 
1503.680509 3 352  Rx d 8 C8 F4 80 00 FF 80 00 FF 
1503.680615 1 206  Rx d 8 6D F7 E0 04 FF FF FF FF 
1503.680746 3 342  Rx d 8 42 F4 80 00 80 00 00 01 
1503.680844 1 245  Rx d 8 9A F7 C7 46 C5 46 47 29 
1503.680984 3 346  Rx d 8 58 F4 14 55 FF FF FF FF 
1503.681082 1 352  Rx d 8 C8 F4 80 00 FF 80 00 FF 
1503.681213 3 245  Rx d 8 9A F7 C7 46 C5 46 47 29 
1503.681328 1 342  Rx d 8 42 F4 80 00 80 00 00 01 
1503.681451 3 262  Rx d 8 80 00 80 00 AF F4 AD F1 
1503.681688 3 142  Rx d 8 90 02 2E 7E FF FF FF FF 
1503.681926 3 3e2  Rx d 8 FA F2 7C C1 00 F8 FD F4 
1503.681950 1 142  Rx d 8 90 02 2E 7E FF FF FF FF 
1503.682163 3 362  Rx d 8 4F F2 3E 8F FF 00 03 FF 
1503.682188 1 3e2  Rx d 8 FA F2 7C C1 00 F8 FD F4 
1503.682450 1 362  Rx d 8 4F F2 3E 8F FF 00 03 FF 
1503.683040 1 1f8  Rx d 8 F2 51 4E 20 41 07 D0 FF 
1503.683286 1 238  Rx d 8 CF 48 5C 00 FF FF FF FF 
1503.683310 3 1f8  Rx d 8 F2 51 4E 20 41 07 D0 FF 
1503.683523 1 2a8  Rx d 8 4E 71 08 3E 07 62 FF FF 
1503.683548 3 238  Rx d 8 CF 48 5C 00 FF FF FF FF 
1503.684719 1 20b  Rx d 8 10 F4 17 95 48 A0 D2 52 
1503.684990 3 20b  Rx d 8 10 F4 17 95 48 A0 D2 52 
1503.687038 1 229  Rx d 8 DF 58 D8 63 E8 1B A7 FF 
1503.687201 3 40d  Rx d 8 FF FF 63 10 00 00 00 80 
1503.687283 1 3d0  Rx d 8 00 04 C0 00 00 00 00 00 
1503.687439 3 17e  Rx d 8 69 F5 E0 00 FF FF 7F 2D 
1503.687677 3 37e  Rx d 8 50 F2 7F 7F FC 80 DF FF 
1503.687693 1 17e  Rx d 8 69 F5 E0 00 FF FF 7F 2D 
1503.687931 1 37e  Rx d 8 50 F2 7F 7F FC 80 DF FF 
1503.688332 1 1a9  Rx d 8 F8 01 FF 1C 23 FC 58 31 
1503.688570 1 269  Rx d 8 F5 04 00 48 FF 4E 20 FF 
1503.688594 3 1a9  Rx d 8 F8 01 FF 1C 23 FC 58 31 
1503.688807 1 3a9  Rx d 8 DC 21 28 00 C0 00 FF 7F 
1503.688832 3 269  Rx d 8 F5 04 00 48 FF 4E 20 FF 
1503.689045 1 219  Rx d 8 9F F4 01 FF 01 FF BF FF 
1503.689069 3 3a9  Rx d 8 DC 21 28 00 C0 00 FF 7F 
1503.689290 1 165  Rx d 8 88 D4 00 00 FF FF FF FF 
1503.689323 3 219  Rx d 8 9F F4 01 FF 01 FF BF FF 
1503.689774 3 106  Rx d 8 FA 70 0C 21 3F 0C FC FF 
1503.689946 1 319  Rx d 8 FF FF FF FF FA 4A 5C 4A 
1503.690019 3 107  Rx d 8 FA F0 E5 FF FF FF FF FF 
1503.690257 3 11b  Rx d 8 D7 30 FF FF FF FF FF FF 
1503.690503 3 211  Rx d 8 03 3E CE FF FF FF FF FF 
1503.690519 1 11b  Rx d 8 D7 30 FF FF FF FF FF FF 
1503.690749 3 352  Rx d 8 95 F5 80 00 FF 80 00 FF 
1503.690749 1 286  Rx d 8 52 F2 0E 8C 00 03 00 96 
1503.690994 3 342  Rx d 8 1F F5 80 00 80 00 00 01 
1503.691019 1 352  Rx d 8 95 F5 80 00 FF 80 00 FF 
1503.691232 3 346  Rx d 8 05 F5 14 55 FF FF FF FF 
1503.691281 1 342  Rx d 8 1F F5 80 00 80 00 00 01 
1503.691469 3 262  Rx d 8 80 00 80 00 AF F4 AD F1 
1503.691715 3 102  Rx d 8 47 0C 00 E0 00 FF FF FF 
1503.692027 1 102  Rx d 8 47 0C 00 E0 00 FF FF FF 
1503.693026 1 1f8  Rx d 8 46 52 4E 1F 41 07 D0 FF 
1503.693272 1 438  Rx d 8 00 00 00 00 00 40 00 C0 
1503.693296 3 1f8  Rx d 8 46 52 4E 1F 41 07 D0 FF 
1503.693550 3 438  Rx d 8 00 00 00 00 00 40 00 C0 
1503.696835 1 229  Rx d 8 82 59 D8 63 E8 1B A7 FF 
1503.696909 3 85  Rx d 8 1B F4 01 00 FC FF FF FF 
1503.697171 1 85  Rx d 8 1B F4 01 00 FC FF FF FF 
1503.697220 3 17e  Rx d 8 8E F6 E0 00 FF FF 7F 2D 
1503.697474 1 17e  Rx d 8 8E F6 E0 00 FF FF 7F 2D 
1503.699186 1 209  Rx d 8 A9 F8 0E 50 4E 10 70 5E 
1503.699424 1 126  Rx d 8 59 F8 00 D1 01 FB FF FF 
1503.699661 1 125  Rx d 8 27 F8 02 69 05 8A FF FF 
1503.699899 1 174  Rx d 8 7B F8 7F F9 FF FF FF FF 
1503.700128 1 205  Rx d 8 CC F8 0A 11 EC F2 EC F7 
1503.700169 3 174  Rx d 8 7B F8 7F F9 FF FF FF FF 
1503.700374 1 206  Rx d 8 31 F8 E0 04 FF FF FF FF 
1503.700505 3 352  Rx d 8 72 F6 80 00 FF 80 00 FF 
1503.700595 1 245  Rx d 8 C6 F8 C7 46 C5 46 47 29 
1503.700751 3 342  Rx d 8 F8 F6 80 00 80 00 00 01 
1503.700849 1 288  Rx d 8 00 FC FF FF FF FF FF FF 
1503.700972 3 245  Rx d 8 C6 F8 C7 46 C5 46 47 29 
1503.701087 1 352  Rx d 8 72 F6 80 00 FF 80 00 FF 
1503.701210 3 346  Rx d 8 E2 F6 14 55 FF FF FF FF 
1503.701333 1 342  Rx d 8 F8 F6 80 00 80 00 00 01 
1503.701447 3 262  Rx d 8 80 00 80 00 AF F4 AD F1 
1503.701685 3 142  Rx d 8 CD 03 2E 7E FF FF FF FF 
1503.701922 3 3e2  Rx d 8 A7 F3 7C C1 00 F8 FD F4 
1503.701947 1 142  Rx d 8 CD 03 2E 7E FF FF FF FF 
1503.702160 3 362  Rx d 8 12 F3 3E 8F FF 00 03 FF 
1503.702185 1 3e2  Rx d 8 A7 F3 7C C1 00 F8 FD F4 
1503.702447 1 362  Rx d 8 12 F3 3E 8F FF 00 03 FF 
1503.702971 1 1f8  Rx d 8 48 53 4E 20 41 07 D0 FF 
1503.703209 1 238  Rx d 8 CF 48 5C 00 FF FF FF FF 
1503.703233 3 1f8  Rx d 8 48 53 4E 20 41 07 D0 FF 
1503.703454 1 2a8  Rx d 8 A9 72 08 3E 07 62 FF FF 
1503.703479 3 238  Rx d 8 CF 48 5C 00 FF FF FF FF 
1503.706911 3 381  Rx d 8 5F FE A9 A0 EA FF FF FF 
1503.707149 3 17e  Rx d 8 D3 F7 E0 00 FF FF 7F 2D 
1503.707174 1 381  Rx d 8 5F FE A9 A0 EA FF FF FF 
1503.707387 3 37e  Rx d 8 B9 F3 7F 7F FC 80 CF FF 
1503.707403 1 229  Rx d 8 65 5A D8 63 E8 1B A7 FF 
1503.707640 1 17e  Rx d 8 D3 F7 E0 00 FF FF 7F 2D 
1503.707878 1 37e  Rx d 8 B9 F3 7F 7F FC 80 CF FF 
1503.708746 1 1a9  Rx d 8 F8 01 FF 1C 23 FC 58 31 
1503.708984 1 20a  Rx d 8 50 F7 03 FC 4F 28 F0 FF 
1503.709000 3 1a9  Rx d 8 F8 01 FF 1C 23 FC 58 31 
1503.709213 1 269  Rx d 8 A8 05 00 48 FF 4E 20 FF 
1503.709238 3 20a  Rx d 8 50 F7 03 FC 4F 28 F0 FF 
1503.709451 1 3a9  Rx d 8 DC 21 28 00 C0 00 FF 7F 
1503.709475 3 269  Rx d 8 A8 05 00 48 FF 4E 20 FF 
1503.709688 1 219  Rx d 8 C2 F5 01 FF 01 FF BF FF 
1503.709713 3 3a9  Rx d 8 DC 21 28 00 C0 00 FF 7F 
1503.709934 1 165  Rx d 8 D5 D5 00 00 FF FF FF FF 
1503.709959 3 103  Rx d 8 FF 00 F8 00 00 00 00 00 
1503.710172 1 1b9  Rx d 8 FF 00 7E 00 FE 01 FE 00 
1503.710205 3 105  Rx d 8 3E FA C4 F3 FF FF FF FF 
1503.710401 1 286  Rx d 8 04 F3 0E 8B 00 03 00 96 
1503.710434 3 106  Rx d 8 A7 71 0C 21 3F 0C FC FF 
1503.710639 1 2d5  Rx d 8 D5 FB 27 10 00 8A FF FF 
1503.710680 3 107  Rx d 8 A7 F1 E5 FF FF FF FF FF 
1503.710876 1 199  Rx d 8 0B FB 85 3F FF FF FF FF 
1503.710917 3 109  Rx d 8 0B 3B CE C0 FF FF FF FF 
1503.711114 1 379  Rx d 8 C8 00 00 00 15 00 00 44 
1503.711155 3 11b  Rx d 8 D7 30 FF FF FF FF FF FF 
1503.711360 1 389  Rx d 8 FC FF 44 FF 07 FF 28 FF 
1503.711392 3 12f  Rx d 8 54 FA F0 CC FF FF FF FF 
1503.711597 1 11b  Rx d 8 D7 30 FF FF FF FF FF FF 
1503.711638 3 211  Rx d 8 03 3E CE FF FF FF FF FF 
1503.711835 1 12f  Rx d 8 54 FA F0 CC FF FF FF FF 
1503.711876 3 219  Rx d 8 C2 F5 01 FF 01 FF BF FF 
1503.712072 1 2e9  Rx d 8 6F FB 00 00 05 B4 00 FF 
1503.712113 3 2d5  Rx d 8 D5 FB 27 10 00 8A FF FF 
1503.712310 1 2f5  Rx d 8 54 FD 0F FF F8 1D F8 1D 
1503.712351 3 1b9  Rx d 8 FF 00 7E 00 FE 01 FE 00 
1503.712556 1 3e0  Rx d 8 11 FD 00 00 64 00 00 FF 
1503.712597 3 352  Rx d 8 2F F7 80 00 FF 80 00 FF 
1503.712801 1 2a1  Rx d 8 43 FD FC 00 41 88 00 00 
1503.712834 3 2e9  Rx d 8 6F FB 00 00 05 B4 00 FF 
1503.713039 1 1f8  Rx d 8 C6 54 4E 20 41 07 D0 FF 
1503.713080 3 342  Rx d 8 A5 F7 80 00 80 00 00 01 
1503.713285 1 2aa  Rx d 8 01 CD 40 FF FF FF FF FF 
1503.713318 3 2a1  Rx d 8 43 FD FC 00 41 88 00 00 
1503.713531 1 220  Rx d 8 97 CD F8 FF FF FF FF FF 
1503.713563 3 1f8  Rx d 8 C6 54 4E 20 41 07 D0 FF 
1503.713768 1 342  Rx d 8 A5 F7 80 00 80 00 00 01 
1503.713801 3 346  Rx d 8 BF F7 14 55 FF FF FF FF 
1503.714014 1 352  Rx d 8 2F F7 80 00 FF 80 00 FF 
1503.714038 3 262  Rx d 8 80 00 80 00 AF F4 AD F1 
1503.714268 1 479  Rx d 8 00 FF FF FF 00 00 C0 FF 
1503.714276 3 102  Rx d 8 1A 0D 00 E0 00 FF FF FF 
1503.714522 3 379  Rx d 8 C8 00 00 00 15 00 00 44 
1503.714546 1 102  Rx d 8 1A 0D 00 E0 00 FF FF FF 
1503.714759 3 389  Rx d 8 FC FF 44 FF 07 FF 28 FF 
1503.714989 1 318  Rx d 8 FF FF F4 02 C0 00 00 00 
1503.715005 3 3e0  Rx d 8 11 FD 00 00 64 00 00 FF 
1503.715243 3 2ab  Rx d 8 6E 95 F1 FF FF FF FF FF 
1503.715488 3 20c  Rx d 8 AE F4 FF 01 24 0F FF FF 
1503.715505 1 2ab  Rx d 8 6E 95 F1 FF FF FF FF FF 
1503.715734 3 2aa  Rx d 8 01 CD 40 FF FF FF FF FF 
1503.715751 1 20c  Rx d 8 AE F4 FF 01 24 0F FF FF 
1503.715972 3 2bf  Rx d 8 03 93 13 81 40 FF 80 00 
1503.716218 3 3c7  Rx d 8 EC FF FF 00 1F 41 FF FF 
1503.716234 1 2bf  Rx d 8 03 93 13 81 40 FF 80 00 
1503.716455 3 403  Rx d 8 6E FD 23 E4 23 00 00 3F 
1503.716701 3 432  Rx d 8 18 14 00 FF FF FF FF FF 
1503.716717 1 287  Rx d 8 00 00 00 F8 FF FF FF FF 
1503.716938 3 85  Rx d 8 46 F5 01 00 FC FF FF FF 
1503.716947 1 229  Rx d 8 38 5B D8 63 E8 1B A7 FF 
1503.717184 3 479  Rx d 8 00 FF FF FF 00 00 C0 FF 
1503.717184 1 403  Rx d 8 6E FD 23 E4 23 00 00 3F 
1503.717422 1 85  Rx d 8 46 F5 01 00 FC FF FF FF 
1503.717422 3 17e  Rx d 8 8F F8 E0 00 FF FF 7F 2D 
1503.717667 1 432  Rx d 8 18 14 00 FF FF FF FF FF 
1503.717676 3 318  Rx d 8 FF FF F4 02 C0 00 00 00 
1503.717905 1 17e  Rx d 8 8F F8 E0 00 FF FF 7F 2D 
1503.719216 1 330  Rx d 8 87 FD 00 FF FF FF FF FF 
1503.719453 3 108  Rx d 8 5D FB FE F0 C0 20 16 20 
1503.719453 1 177  Rx d 8 E3 FC 0E 86 0E 87 FF FF 
1503.719691 1 126  Rx d 8 04 F9 00 D1 01 FB FF FF 
1503.719789 3 20d  Rx d 8 AF FA FF 01 24 0F FF FF 
1503.719928 1 108  Rx d 8 5D FB FE F0 C0 20 16 20 
1503.720166 1 125  Rx d 8 7A F9 02 69 05 8A FF FF 
1503.720412 1 174  Rx d 8 26 F9 7F F9 FF FF FF FF 
1503.720510 3 352  Rx d 8 73 F8 80 00 FF 80 00 FF 
1503.720641 1 176  Rx d 8 89 FC 0E 87 0E 87 FF FF 
1503.720756 3 174  Rx d 8 26 F9 7F F9 FF FF FF FF 
1503.720871 1 205  Rx d 8 91 F9 0A 11 EC F2 EC F7 
1503.721002 3 342  Rx d 8 F9 F8 80 00 80 00 00 01 
1503.721116 1 206  Rx d 8 6C F9 E0 04 FF FF FF FF 
1503.721231 3 176  Rx d 8 89 FC 0E 87 0E 87 FF FF 
1503.721346 1 209  Rx d 8 F4 F9 0E 50 4E 10 70 5E 
1503.721469 3 346  Rx d 8 E3 F8 14 55 FF FF FF FF 
1503.721591 1 214  Rx d 8 1D FC EA E7 FF FF FF FF 
1503.721714 3 262  Rx d 8 80 00 80 00 AF F4 AD F1 
1503.721821 1 215  Rx d 8 6B 5C 08 0A B5 C8 8A 02 
1503.721952 3 142  Rx d 8 43 04 2E 7E FF FF FF FF 
1503.722058 1 216  Rx d 8 49 FC C0 00 C0 00 00 00 
1503.722173 3 215  Rx d 8 6B 5C 08 0A B5 C8 8A 02 
1503.722304 1 218  Rx d 8 71 FC 2E FF FF FF FF FF 
1503.722419 3 216  Rx d 8 49 FC C0 00 C0 00 00 00 
1503.722542 1 142  Rx d 8 43 04 2E 7E FF FF FF FF 
1503.722656 3 3e2  Rx d 8 29 F4 7C C1 00 F8 FD F4 
1503.722779 1 225  Rx d 8 7B 0D 00 00 00 00 00 F8 
1503.722894 3 362  Rx d 8 9C F4 3E 8F FF 00 03 FF 
1503.723017 1 1f8  Rx d 8 9B 55 4E 20 41 07 D0 FF 
1503.723263 1 238  Rx d 8 CF 48 5C 00 FF FF FF FF 
1503.723279 3 1f8  Rx d 8 9B 55 4E 20 41 07 D0 FF 
1503.723484 1 245  Rx d 8 9B F9 C7 46 C5 46 47 29 
1503.723525 3 238  Rx d 8 CF 48 5C 00 FF FF FF FF 
1503.723730 1 248  Rx d 8 14 FD 00 00 00 00 FC FF 
1503.723762 3 245  Rx d 8 9B F9 C7 46 C5 46 47 29 
1503.723975 1 249  Rx d 8 68 FD 00 00 FF FF FF FF 
1503.724213 1 2a8  Rx d 8 F4 73 08 3E 07 62 FF FF 
1503.724459 1 305  Rx d 8 2C 7D 2D 11 FF FF FF FF 
1503.724696 1 332  Rx d 8 9C FD 00 BA 46 FF FF FF 
1503.724942 1 342  Rx d 8 F9 F8 80 00 80 00 00 01 
1503.725188 1 348  Rx d 8 3A 0C 27 10 00 00 FF FF 
1503.725425 1 352  Rx d 8 73 F8 80 00 FF 80 00 FF 
1503.725671 1 375  Rx d 8 73 FC CA FA FF FF FF FF 
1503.725909 1 3e2  Rx d 8 29 F4 7C C1 00 F8 FD F4 
1503.726154 1 455  Rx d 8 CE FD 00 00 00 FF FF FF 
1503.726392 1 362  Rx d 8 9C F4 3E 8F FF 00 03 FF 
1503.726425 3 455  Rx d 8 CE FD 00 00 00 FF FF FF 
1503.726621 1 5e0  Rx d 8 21 0C F6 0C F6 0C F7 1D 
1503.726843 1 5e1  Rx d 8 02 46 46 45 46 45 46 46 
1503.727080 1 229  Rx d 8 B6 5C D8 63 E8 1B A7 FF 
1503.727252 3 17e  Rx d 8 D2 F9 E0 00 FF FF 7F 2D 
1503.727318 1 5e2  Rx d 8 00 00 00 5A 01 73 00 00 
1503.727490 3 37e  Rx d 8 37 F4 7F 7F FC 80 CF FF 
1503.727555 1 17e  Rx d 8 D2 F9 E0 00 FF FF 7F 2D 
1503.727793 1 37e  Rx d 8 37 F4 7F 7F FC 80 CF FF 
1503.728039 1 5e3  Rx d 8 1F 43 E4 00 00 00 3F C9 
1503.728276 1 5e4  Rx d 8 2C 0D 00 00 40 45 44 45 
1503.728514 1 1a9  Rx d 8 F8 01 FF 1C 23 FC 58 31 
1503.728743 1 269  Rx d 8 4F 06 00 48 FF 4E 20 FF 
1503.728768 3 1a9  Rx d 8 F8 01 FF 1C 23 FC 58 31 
1503.728981 1 286  Rx d 8 E4 F4 0E 8A 00 03 00 A0 
1503.729005 3 269  Rx d 8 4F 06 00 48 FF 4E 20 FF 
1503.729218 1 3a9  Rx d 8 DC 21 28 00 C0 00 FF 7F 
1503.729456 1 219  Rx d 8 25 F6 01 FF 01 FF BF FF 
1503.729472 3 3a9  Rx d 8 DC 21 28 00 C0 00 FF 7F 
1503.729702 1 165  Rx d 8 32 D6 00 00 FF FF FF FF 
1503.729743 3 219  Rx d 8 25 F6 01 FF 01 FF BF FF 
1503.729972 3 106  Rx d 8 40 72 0C 21 3F 0C FC FF 
1503.730218 3 107  Rx d 8 40 F2 E5 FF FF FF FF FF 
1503.730455 3 11b  Rx d 8 D7 30 FF FF FF FF FF FF 
1503.730701 3 211  Rx d 8 03 3E CE FF FF FF FF FF 
1503.730717 1 11b  Rx d 8 D7 30 FF FF FF FF FF FF 
1503.730947 3 352  Rx d 8 2E F9 80 00 FF 80 00 FF 
1503.731184 3 342  Rx d 8 A4 F9 80 00 80 00 00 01 
1503.731209 1 352  Rx d 8 2E F9 80 00 FF 80 00 FF 
1503.731422 3 346  Rx d 8 BE F9 14 55 FF FF FF FF 
1503.731471 1 342  Rx d 8 A4 F9 80 00 80 00 00 01 
1503.731659 3 262  Rx d 8 80 00 80 00 AF F4 AD F1 
1503.731905 3 102  Rx d 8 FD 0E 00 E0 00 FF FF FF 
1503.732167 1 102  Rx d 8 FD 0E 00 E0 00 FF FF FF 
1503.732954 1 1f8  Rx d 8 7C 56 4E 20 41 07 D0 FF 
1503.733224 3 1f8  Rx d 8 7C 56 4E 20 41 07 D0 FF 
1503.736829 1 229  Rx d 8 EB 5D D8 63 E8 1B A7 FF 
1503.736911 3 85  Rx d 8 A1 F6 01 00 FC FF FF FF 
1503.737173 1 3d0  Rx d 8 00 04 C0 00 00 00 00 00 
1503.737181 3 225  Rx d 8 FF FF FF FF AF FF FF FF 
1503.737418 1 85  Rx d 8 A1 F6 01 00 FC FF FF FF 
1503.737418 3 17e  Rx d 8 35 FA E0 00 FF FF 7F 2D 
1503.737664 1 201  Rx d 8 47 F9 7F FF FF FF FF FF 
1503.737664 3 201  Rx d 8 47 F9 7F FF FF FF FF FF 
1503.737918 3 40d  Rx d 8 FF FF 63 10 00 00 00 80 
1503.737943 1 17e  Rx d 8 35 FA E0 00 FF FF 7F 2D 
1503.739188 1 209  Rx d 8 13 FA 0E 50 4E 10 70 5E 
1503.739425 1 126  Rx d 8 E3 FA 00 D1 01 FB FF FF 
1503.739655 1 125  Rx d 8 9D FA 02 69 05 8A FF FF 
1503.739753 3 109  Rx d 8 85 3C CE C0 FF FF FF FF 
1503.739901 1 174  Rx d 8 C1 FA 7F F9 FF FF FF FF 
1503.740130 1 205  Rx d 8 76 FA 0A 11 EC F2 EC F7 
1503.740179 3 174  Rx d 8 C1 FA 7F F9 FF FF FF FF 
1503.740376 1 206  Rx d 8 8B FA E0 04 FF FF FF FF 
1503.740507 3 352  Rx d 8 C9 FA 80 00 FF 80 00 FF 
1503.740605 1 245  Rx d 8 7C FA C7 46 C5 46 47 29 
1503.740744 3 342  Rx d 8 43 FA 80 00 80 00 00 01 
1503.740843 1 319  Rx d 8 FF FF FF FF FA 4A 5C 4A 
1503.740974 3 245  Rx d 8 7C FA C7 46 C5 46 47 29 
1503.741080 1 352  Rx d 8 C9 FA 80 00 FF 80 00 FF 
1503.741211 3 346  Rx d 8 59 FA 14 55 FF FF FF FF 
1503.741326 1 342  Rx d 8 43 FA 80 00 80 00 00 01 
1503.741449 3 262  Rx d 8 80 00 80 00 AF F4 AD F1 
1503.741686 3 142  Rx d 8 1E 05 2E 7E FF FF FF FF 
1503.741932 3 3e2  Rx d 8 74 F5 7C C1 00 F8 FD F4 
1503.741949 1 142  Rx d 8 1E 05 2E 7E FF FF FF FF 
1503.742170 3 362  Rx d 8 C1 F5 3E 8F FF 00 03 FF 
1503.742203 1 3e2  Rx d 8 74 F5 7C C1 00 F8 FD F4 
1503.742465 1 362  Rx d 8 C1 F5 3E 8F FF 00 03 FF 
1503.742940 1 1f8  Rx d 8 21 57 4E 20 41 07 D0 FF 
1503.743177 1 238  Rx d 8 CF 48 5C 00 FF FF FF FF 
1503.743202 3 1f8  Rx d 8 21 57 4E 20 41 07 D0 FF 
1503.743415 1 2a8  Rx d 8 7A 74 08 3E 07 62 FF FF 
1503.743448 3 238  Rx d 8 CF 48 5C 00 FF FF FF FF 
1503.747036 1 229  Rx d 8 0C 5E D8 63 E8 1B A7 FF 
1503.747314 3 17e  Rx d 8 68 FB E0 00 FF FF 7F 2D 
1503.747552 3 37e  Rx d 8 6A F5 7F 7F FC 80 CF FF 
1503.747576 1 17e  Rx d 8 68 FB E0 00 FF FF 7F 2D 
1503.747814 1 286  Rx d 8 6D F5 0E 88 00 03 00 A0 
1503.748052 1 37e  Rx d 8 6A F5 7F 7F FC 80 CF FF 
1503.748363 1 1a9  Rx d 8 F8 01 FF 1C 23 FC 58 31 
1503.748600 1 269  Rx d 8 12 07 00 48 FF 4E 20 FF 
1503.748625 3 1a9  Rx d 8 F8 01 FF 1C 23 FC 58 31 
1503.748838 1 3a9  Rx d 8 DC 21 28 00 C0 00 FF 7F 
1503.748863 3 269  Rx d 8 12 07 00 48 FF 4E 20 FF 
1503.749076 1 219  Rx d 8 78 F7 01 FF 01 FF BF FF 
1503.749100 3 3a9  Rx d 8 DC 21 28 00 C0 00 FF 7F 
1503.749321 1 165  Rx d 8 6F D7 00 00 FF FF FF FF 
1503.749354 3 219  Rx d 8 78 F7 01 FF 01 FF BF FF 
1503.749813 3 106  Rx d 8 1D 73 0C 21 3F 0C FC FF 
1503.750059 3 107  Rx d 8 1D F3 E5 FF FF FF FF FF 
1503.750296 3 10a  Rx d 8 56 FA A4 DB 00 FF FF FF 
1503.750534 3 11b  Rx d 8 D7 30 FF FF FF FF FF FF 
1503.750550 1 10a  Rx d 8 56 FA A4 DB 00 FF FF FF 
1503.750780 3 211  Rx d 8 03 3E CE FF FF FF FF FF 
1503.750796 1 11b  Rx d 8 D7 30 FF FF FF FF FF FF 
1503.751025 3 352  Rx d 8 94 FB 80 00 FF 80 00 FF 
1503.751271 3 342  Rx d 8 1E FB 80 00 80 00 00 01 
1503.751287 1 352  Rx d 8 94 FB 80 00 FF 80 00 FF 
1503.751509 3 346  Rx d 8 04 FB 14 55 FF FF FF FF 
1503.751558 1 342  Rx d 8 1E FB 80 00 80 00 00 01 
1503.751746 3 262  Rx d 8 80 00 80 00 AF F4 AD F1 
1503.751992 3 102  Rx d 8 FC 00 00 E0 00 FF FF FF 
1503.752238 3 41d  Rx d 8 88 3F FF B9 C2 BF FF FF 
1503.752262 1 102  Rx d 8 FC 00 00 E0 00 FF FF FF 
1503.752885 1 1f8  Rx d 8 2E 58 4E 1F 41 07 D0 FF 
1503.753155 3 1f8  Rx d 8 2E 58 4E 1F 41 07 D0 FF 
1503.756907 3 85  Rx d 8 FC F7 01 00 FC FF FF FF 
1503.756965 1 229  Rx d 8 0D 50 D8 63 E8 1B A7 FF 
1503.757202 1 85  Rx d 8 FC F7 01 00 FC FF FF FF 
1503.757333 3 17e  Rx d 8 E6 FC E0 00 FF FF 7F 2D 
1503.757587 1 17e  Rx d 8 E6 FC E0 00 FF FF 7F 2D 
1503.758005 1 1b9  Rx d 8 FF 00 7E 00 FE 01 FE 00 
1503.758242 1 2d5  Rx d 8 5B FC 27 10 00 8A FF FF 
1503.758267 3 1b9  Rx d 8 FF 00 7E 00 FE 01 FE 00 
1503.758480 1 199  Rx d 8 85 FC 85 3F FF FF FF FF 
1503.758496 3 2d5  Rx d 8 5B FC 27 10 00 8A FF FF 
1503.758718 1 379  Rx d 8 C8 00 00 00 15 00 00 44 
1503.758955 1 389  Rx d 8 FC FF 44 FF 07 FF 28 FF 
1503.758996 3 379  Rx d 8 C8 00 00 00 15 00 00 44 
1503.759193 1 209  Rx d 8 4E FB 0E 50 4E 10 70 5E 
1503.759234 3 389  Rx d 8 FC FF 44 FF 07 FF 28 FF 
1503.759430 1 126  Rx d 8 BE FB 00 D1 01 FB FF FF 
1503.759668 1 125  Rx d 8 C0 FB 02 69 05 8A FF FF 
1503.759758 3 10c  Rx d 8 D9 FA FF FF 86 03 3E 77 
1503.759914 1 174  Rx d 8 9C FB 7F F9 FF FF FF FF 
1503.760143 1 205  Rx d 8 2B FB 0A 11 EC F2 EC F7 
1503.760184 3 174  Rx d 8 9C FB 7F F9 FF FF FF FF 
1503.760381 1 206  Rx d 8 D6 FB E0 04 FF FF FF FF 
1503.760503 3 352  Rx d 8 1A FC 80 00 FF 80 00 FF 
1503.760610 1 245  Rx d 8 21 FB C7 46 C5 46 47 29 
1503.760749 3 342  Rx d 8 90 FC 80 00 80 00 00 01 
1503.760848 1 2e9  Rx d 8 E1 FC 00 00 05 B4 00 FF 
1503.760979 3 245  Rx d 8 21 FB C7 46 C5 46 47 29 
1503.761093 1 352  Rx d 8 1A FC 80 00 FF 80 00 FF 
1503.761216 3 346  Rx d 8 8A FC 14 55 FF FF FF FF 
1503.761339 1 342  Rx d 8 90 FC 80 00 80 00 00 01 
1503.761454 3 262  Rx d 8 80 00 80 00 AF F4 AD F1 
1503.761699 3 142  Rx d 8 F9 06 2E 7E FF FF FF FF 
1503.761937 3 2e9  Rx d 8 E1 FC 00 00 05 B4 00 FF 
1503.762019 1 142  Rx d 8 F9 06 2E 7E FF FF FF FF 
1503.762175 3 3e2  Rx d 8 93 F6 7C C1 00 F8 FD F4 
1503.762412 3 362  Rx d 8 26 F6 3E 8F FF 00 03 FF 
1503.762437 1 3e2  Rx d 8 93 F6 7C C1 00 F8 FD F4 
1503.762699 1 362  Rx d 8 26 F6 3E 8F FF 00 03 FF 
1503.762936 1 1f8  Rx d 8 73 59 4E 1F 41 07 D0 FF 
1503.763182 1 238  Rx d 8 CF 48 5C 00 FF FF FF FF 
1503.763199 3 1f8  Rx d 8 73 59 4E 1F 41 07 D0 FF 
1503.763420 1 2a8  Rx d 8 27 75 08 3E 07 62 FF FF 
1503.763444 3 238  Rx d 8 CF 48 5C 00 FF FF FF FF 
1503.763969 3 2bf  Rx d 8 03 93 13 81 40 FF 80 00 
1503.764231 1 2bf  Rx d 8 03 93 13 81 40 FF 80 00 
1503.764993 1 318  Rx d 8 FF FF F4 02 C0 00 00 00 
1503.765255 3 318  Rx d 8 FF FF F4 02 C0 00 00 00 
1503.766770 1 286  Rx d 8 F6 F6 0E 87 00 03 00 A0 
1503.767041 1 229  Rx d 8 50 51 D8 63 E8 1B A7 FF 
1503.767237 3 17e  Rx d 8 BB FD E0 00 FF FF 7F 2D 
1503.767483 3 37e  Rx d 8 A6 F6 7F 7F FC 80 BF FF 
1503.767499 1 17e  Rx d 8 BB FD E0 00 FF FF 7F 2D 
1503.767745 1 37e  Rx d 8 A6 F6 7F 7F FC 80 BF FF 
1503.768368 1 1a9  Rx d 8 F8 01 FF 1C 23 FC 58 31 
1503.768605 1 269  Rx d 8 4E 08 00 48 FF 4E 20 FF 
1503.768630 3 1a9  Rx d 8 F8 01 FF 1C 23 FC 58 31 
1503.768843 1 3a9  Rx d 8 DC 21 28 00 C0 00 FF 7F 
1503.768867 3 269  Rx d 8 4E 08 00 48 FF 4E 20 FF 
1503.769089 1 219  Rx d 8 24 F8 01 FF 01 FF BF FF 
1503.769105 3 3a9  Rx d 8 DC 21 28 00 C0 00 FF 7F 
1503.769334 1 165  Rx d 8 33 D8 00 00 FF FF FF FF 
1503.769375 3 219  Rx d 8 24 F8 01 FF 01 FF BF FF 
1503.769572 1 176  Rx d 8 D4 FD 0E 87 0E 87 FF FF 
1503.769703 3 108  Rx d 8 D3 FC FE F0 C0 20 16 20 
1503.769801 1 177  Rx d 8 BE FD 0E 86 0E 87 FF FF 
1503.769932 3 106  Rx d 8 93 74 0C 21 3F 0C FC FF 
1503.770039 1 108  Rx d 8 D3 FC FE F0 C0 20 16 20 
1503.770178 3 107  Rx d 8 93 F4 E5 FF FF FF FF FF 
1503.770285 1 214  Rx d 8 40 FD EA E7 FF FF FF FF 
1503.770424 3 109  Rx d 8 D8 3D CE C0 FF FF FF FF 
1503.770514 1 215  Rx d 8 36 5D 08 0A B5 C8 8A 02 
1503.770670 3 10e  Rx d 8 0F FC F8 FF FF FF FF FF 
1503.770752 1 216  Rx d 8 14 FD C0 00 C0 00 00 00 
1503.770907 3 11b  Rx d 8 D7 30 FF FF FF FF FF FF 
1503.771006 1 218  Rx d 8 2C FD 2E FF FF FF FF FF 
1503.771145 3 176  Rx d 8 D4 FD 0E 87 0E 87 FF FF 
1503.771243 1 11b  Rx d 8 D7 30 FF FF FF FF FF FF 
1503.771382 3 211  Rx d 8 03 3E CE FF FF FF FF FF 
1503.771481 1 375  Rx d 8 2E FD CA FA FF FF FF FF 
1503.771620 3 215  Rx d 8 36 5D 08 0A B5 C8 8A 02 
1503.771710 1 5e0  Rx d 8 22 0C F7 0C F6 0C F7 1D 
1503.771858 3 216  Rx d 8 14 FD C0 00 C0 00 00 00 
1503.772103 3 352  Rx d 8 47 FD 80 00 FF 80 00 FF 
1503.772349 3 342  Rx d 8 CD FD 80 00 80 00 00 01 
1503.772374 1 352  Rx d 8 47 FD 80 00 FF 80 00 FF 
1503.772587 3 346  Rx d 8 D7 FD 14 55 FF FF FF FF 
1503.772636 1 342  Rx d 8 CD FD 80 00 80 00 00 01 
1503.772824 3 262  Rx d 8 80 00 80 00 AF F4 AD F1 
1503.772873 1 1f8  Rx d 8 C7 5A 4E 20 41 07 D0 FF 
1503.773070 3 102  Rx d 8 A1 01 00 E0 00 FF FF FF 
1503.773308 3 1f8  Rx d 8 C7 5A 4E 20 41 07 D0 FF 
1503.773308 1 348  Rx d 8 3A 0C 27 10 00 00 FF FF 
1503.773553 1 102  Rx d 8 A1 01 00 E0 00 FF FF FF 
1503.776830 1 229  Rx d 8 B7 52 D8 63 E8 1B A7 FF 
1503.776912 3 85  Rx d 8 A0 F8 01 00 FC FF FF FF 
1503.777182 1 85  Rx d 8 A0 F8 01 00 FC FF FF FF 
1503.777338 3 17e  Rx d 8 5C FE E0 00 FF FF 7F 2D 
1503.777592 1 17e  Rx d 8 5C FE E0 00 FF FF 7F 2D 
1503.779189 1 209  Rx d 8 C0 FC 0E 50 4E 10 70 5E 
1503.779427 1 126  Rx d 8 30 FC 00 D1 01 FB FF FF 
1503.779656 1 125  Rx d 8 4E FC 02 69 05 8A FF FF 
1503.779763 3 112  Rx d 8 B8 F9 FF FF FA FC FF FF 
1503.779902 1 174  Rx d 8 12 FC 7F F9 FF FF FF FF 
1503.780148 1 112  Rx d 8 B8 F9 FF FF FA FC FF FF 
1503.780181 3 174  Rx d 8 12 FC 7F F9 FF FF FF FF 
1503.780377 1 205  Rx d 8 A5 FC 0A 11 EC F2 EC F7 
1503.780508 3 352  Rx d 8 A0 FE 80 00 FF 80 00 FF 
1503.780623 1 206  Rx d 8 58 FC E0 04 FF FF FF FF 
1503.780754 3 342  Rx d 8 2A FE 80 00 80 00 00 01 
1503.780852 1 245  Rx d 8 AF FC C7 46 C5 46 47 29 
1503.780992 3 346  Rx d 8 30 FE 14 55 FF FF FF FF 
1503.781098 1 352  Rx d 8 A0 FE 80 00 FF 80 00 FF 
1503.781221 3 245  Rx d 8 AF FC C7 46 C5 46 47 29 
1503.781344 1 342  Rx d 8 2A FE 80 00 80 00 00 01 
1503.781459 3 262  Rx d 8 80 00 80 00 AF F4 AD F1 
1503.781696 3 142  Rx d 8 A4 07 2E 7E FF FF FF FF 
1503.781934 3 3e2  Rx d 8 CE F7 7C C1 00 F8 FD F4 
1503.782016 1 142  Rx d 8 A4 07 2E 7E FF FF FF FF 
1503.782171 3 362  Rx d 8 7B F7 3E 8F FF 00 03 FF 
1503.782253 1 3e2  Rx d 8 CE F7 7C C1 00 F8 FD F4 
1503.782515 1 362  Rx d 8 7B F7 3E 8F FF 00 03 FF 
1503.782868 1 1f8  Rx d 8 9A 5B 4E 20 41 07 D0 FF 
1503.783113 1 238  Rx d 8 CF 48 5C 00 FF FF FF FF 
1503.783138 3 1f8  Rx d 8 9A 5B 4E 20 41 07 D0 FF 
1503.783351 1 2a8  Rx d 8 C0 76 08 3E 07 62 FF FF 
1503.783376 3 238  Rx d 8 CF 48 5C 00 FF FF FF FF 
1503.785751 1 286  Rx d 8 AB F7 0E 87 00 03 00 A0 
1503.787029 1 229  Rx d 8 EA 53 D8 63 E8 1B A7 FF 
1503.787185 3 40d  Rx d 8 FF FF 63 10 00 00 00 80 
1503.787283 1 3d0  Rx d 8 00 04 C0 00 00 00 00 00 
1503.787422 3 17e  Rx d 8 5D F0 E0 00 FF FF 7F 2D 
1503.787660 3 37e  Rx d 8 D0 F7 7F 7F FC 80 CF FF 
1503.787685 1 17e  Rx d 8 5D F0 E0 00 FF FF 7F 2D 
1503.787914 1 37e  Rx d 8 D0 F7 7F 7F FC 80 CF FF 
1503.788332 1 1a9  Rx d 8 F8 01 FF 1C 23 FC 58 31 
1503.788561 1 269  Rx d 8 13 09 00 48 FF 4E 20 FF 
1503.788586 3 1a9  Rx d 8 F8 01 FF 1C 23 FC 58 31 
1503.788799 1 3a9  Rx d 8 DC 21 28 00 C0 00 FF 7F 
1503.788823 3 269  Rx d 8 13 09 00 48 FF 4E 20 FF 
1503.789044 1 219  Rx d 8 79 F9 01 FF 01 FF BF FF 
1503.789061 3 3a9  Rx d 8 DC 21 28 00 C0 00 FF 7F 
1503.789282 1 165  Rx d 8 6E D9 00 00 FF FF FF FF 
1503.789315 3 219  Rx d 8 79 F9 01 FF 01 FF BF FF 
1503.789708 1 20b  Rx d 8 4D F5 17 95 48 A0 D2 52 
1503.789773 3 106  Rx d 8 CE 75 0C 21 3F 0C FC FF 
1503.789946 1 319  Rx d 8 FF FF FF FF FA 4A 5C 4A 
1503.790019 3 107  Rx d 8 CE F5 E5 FF FF FF FF FF 
1503.790257 3 11b  Rx d 8 D7 30 FF FF FF FF FF FF 
1503.790486 3 20b  Rx d 8 4D F5 17 95 48 A0 D2 52 
1503.790519 1 11b  Rx d 8 D7 30 FF FF FF FF FF FF 
1503.790732 3 211  Rx d 8 03 3E CE FF FF FF FF FF 
1503.790970 3 352  Rx d 8 A1 F0 80 00 FF 80 00 FF 
1503.791215 3 342  Rx d 8 2B F0 80 00 80 00 00 01 
1503.791232 1 352  Rx d 8 A1 F0 80 00 FF 80 00 FF 
1503.791453 3 346  Rx d 8 31 F0 14 55 FF FF FF FF 
1503.791502 1 342  Rx d 8 2B F0 80 00 80 00 00 01 
1503.791699 3 262  Rx d 8 80 00 80 00 AF F4 AD F1 
1503.791936 3 102  Rx d 8 46 02 00 E0 00 FF FF FF 
1503.792190 1 102  Rx d 8 46 02 00 E0 00 FF FF FF 
1503.792870 1 1f8  Rx d 8 14 5C 4E 20 41 07 D0 FF 
1503.793116 1 438  Rx d 8 00 00 00 00 00 40 00 C0 
1503.793132 3 1f8  Rx d 8 14 5C 4E 20 41 07 D0 FF 
1503.793386 3 438  Rx d 8 00 00 00 00 00 40 00 C0 
1503.796827 1 229  Rx d 8 64 54 D8 63 E8 1B A7 FF 
1503.796909 3 85  Rx d 8 FD F9 01 00 FC FF FF FF 
1503.797171 1 85  Rx d 8 FD F9 01 00 FC FF FF FF 
1503.797359 3 17e  Rx d 8 00 F1 E0 00 FF FF 7F 2D 
1503.797613 1 17e  Rx d 8 00 F1 E0 00 FF FF 7F 2D 
1503.799186 1 209  Rx d 8 9D FD 0E 50 4E 10 70 5E 
1503.799415 1 126  Rx d 8 6D FD 00 D1 01 FB FF FF 
1503.799653 1 125  Rx d 8 13 FD 02 69 05 8A FF FF 
1503.799768 3 109  Rx d 8 3F 3E CE C0 FF FF FF FF 
1503.799899 1 174  Rx d 8 4F FD 7F F9 FF FF FF FF 
1503.800128 1 205  Rx d 8 F8 FD 0A 11 EC F2 EC F7 
1503.800169 3 174  Rx d 8 4F FD 7F F9 FF FF FF FF 
1503.800374 1 206  Rx d 8 05 FD E0 04 FF FF FF FF 
1503.800505 3 352  Rx d 8 FC F1 80 00 FF 80 00 FF 
1503.800595 1 245  Rx d 8 F2 FD C7 46 C5 46 47 29 
1503.800743 3 342  Rx d 8 76 F1 80 00 80 00 00 01 
1503.800841 1 352  Rx d 8 FC F1 80 00 FF 80 00 FF 
1503.800972 3 245  Rx d 8 F2 FD C7 46 C5 46 47 29 
1503.801078 1 342  Rx d 8 76 F1 80 00 80 00 00 01 
1503.801201 3 346  Rx d 8 6C F1 14 55 FF FF FF FF 
1503.801439 3 262  Rx d 8 80 00 80 00 AF F4 AD F1 
1503.801685 3 142  Rx d 8 F8 08 2E 7E FF FF FF FF 
1503.801930 3 3e2  Rx d 8 92 F8 7C C1 00 F8 FD F4 
1503.801947 1 142  Rx d 8 F8 08 2E 7E FF FF FF FF 
1503.802168 3 362  Rx d 8 27 F8 3E 8F FF 00 03 FF 
1503.802193 1 3e2  Rx d 8 92 F8 7C C1 00 F8 FD F4 
1503.802463 1 362  Rx d 8 27 F8 3E 8F FF 00 03 FF 
1503.802856 1 1f8  Rx d 8 49 5D 4E 20 41 07 D0 FF 
1503.803102 1 238  Rx d 8 CF 48 5C 00 FF FF FF FF 
1503.803126 3 1f8  Rx d 8 49 5D 4E 20 41 07 D0 FF 
1503.803331 1 2a8  Rx d 8 9D 77 08 3E 07 62 FF FF 
1503.803364 3 238  Rx d 8 CF 48 5C 00 FF FF FF FF 
1503.804757 1 286  Rx d 8 F7 F8 0E 87 00 03 00 A0 
1503.805699 1 288  Rx d 8 00 FC FF FF FF FF FF FF 
1503.807247 3 17e  Rx d 8 E7 F2 E0 00 FF FF 7F 2D 
1503.807288 1 229  Rx d 8 39 55 D8 63 E8 1B A7 FF 
1503.807485 3 37e  Rx d 8 A7 F8 7F 7F FC 80 BF FF 
1503.807534 1 17e  Rx d 8 E7 F2 E0 00 FF FF 7F 2D 
1503.807771 1 37e  Rx d 8 A7 F8 7F 7F FC 80 BF FF 
1503.808738 1 1a9  Rx d 8 F8 01 FF 1C 23 FC 58 31 
1503.808976 1 269  Rx d 8 F4 0A 00 48 FF 4E 20 FF 
1503.809000 3 1a9  Rx d 8 F8 01 FF 1C 23 FC 58 31 
1503.809213 1 3a9  Rx d 8 DC 21 28 00 C0 00 FF 7F 
1503.809229 3 269  Rx d 8 F4 0A 00 48 FF 4E 20 FF 
1503.809451 1 219  Rx d 8 9E FA 01 FF 01 FF BF FF 
1503.809467 3 3a9  Rx d 8 DC 21 28 00 C0 00 FF 7F 
1503.809688 1 165  Rx d 8 89 DA 00 00 FF FF FF FF 
1503.809721 3 219  Rx d 8 9E FA 01 FF 01 FF BF FF 
1503.809926 1 1b9  Rx d 8 FF 00 7E 00 FE 01 FE 00 
1503.809959 3 105  Rx d 8 63 FB C4 F3 FF FF FF FF 
1503.810163 1 2d5  Rx d 8 06 FD 27 10 00 8A FF FF 
1503.810196 3 106  Rx d 8 29 76 0C 21 3F 0C FC FF 
1503.810401 1 199  Rx d 8 D8 FD 85 3F FF FF FF FF 
1503.810442 3 107  Rx d 8 29 F6 E5 FF FF FF FF FF 
1503.810647 1 379  Rx d 8 C8 00 00 00 15 00 00 44 
1503.810679 3 11b  Rx d 8 D7 30 FF FF FF FF FF FF 
1503.810884 1 389  Rx d 8 FC FF 44 FF 07 FF 28 FF 
1503.810925 3 12f  Rx d 8 09 FB F0 CC FF FF FF FF 
1503.811122 1 11b  Rx d 8 D7 30 FF FF FF FF FF FF 
1503.811163 3 1b9  Rx d 8 FF 00 7E 00 FE 01 FE 00 
1503.811359 1 12f  Rx d 8 09 FB F0 CC FF FF FF FF 
1503.811400 3 211  Rx d 8 03 3E CE FF FF FF FF FF 
1503.811597 1 2e9  Rx d 8 BC FD 00 00 05 B4 00 FF 
1503.811638 3 2d5  Rx d 8 06 FD 27 10 00 8A FF FF 
1503.811843 1 2f5  Rx d 8 B3 FE 0F FF F8 1D F8 1D 
1503.811884 3 352  Rx d 8 1B F2 80 00 FF 80 00 FF 
1503.812080 1 3e0  Rx d 8 F6 FE 00 00 64 00 00 FF 
1503.812121 3 2e9  Rx d 8 BC FD 00 00 05 B4 00 FF 
1503.812318 1 2a1  Rx d 8 A4 FE FC 00 41 88 00 00 
1503.812367 3 342  Rx d 8 91 F2 80 00 80 00 00 01 
1503.812564 1 2aa  Rx d 8 E6 CE 40 FF FF FF FF FF 
1503.812605 3 346  Rx d 8 8B F2 14 55 FF FF FF FF 
1503.812801 1 220  Rx d 8 70 CE F8 FF FF FF FF FF 
1503.812842 3 262  Rx d 8 80 00 80 00 AF F4 AD F1 
1503.813047 1 1f8  Rx d 8 AE 5E 4E 20 41 07 D0 FF 
1503.813088 3 102  Rx d 8 1B 03 00 E0 00 FF FF FF 
1503.813285 1 342  Rx d 8 91 F2 80 00 80 00 00 01 
1503.813325 3 2a1  Rx d 8 A4 FE FC 00 41 88 00 00 
1503.813538 1 352  Rx d 8 1B F2 80 00 FF 80 00 FF 
1503.813563 3 1f8  Rx d 8 AE 5E 4E 20 41 07 D0 FF 
1503.813776 1 102  Rx d 8 1B 03 00 E0 00 FF FF FF 
1503.813809 3 379  Rx d 8 C8 00 00 00 15 00 00 44 
1503.814014 1 20a  Rx d 8 7F F8 04 3C 4F 28 F0 FF 
1503.814046 3 389  Rx d 8 FC FF 44 FF 07 FF 28 FF 
1503.814259 1 479  Rx d 8 00 FF FF FF 00 00 C0 FF 
1503.814284 3 3e0  Rx d 8 F6 FE 00 00 64 00 00 FF 
1503.814538 3 2aa  Rx d 8 E6 CE 40 FF FF FF FF FF 
1503.814784 3 20a  Rx d 8 7F F8 04 3C 4F 28 F0 FF 
1503.815021 3 2ab  Rx d 8 89 96 F1 FF FF FF FF FF 
1503.815021 1 318  Rx d 8 FF FF F4 02 C0 00 00 00 
1503.815267 3 20c  Rx d 8 F3 F5 FF 01 24 0F FF FF 
1503.815283 1 2ab  Rx d 8 89 96 F1 FF FF FF FF FF 
1503.815505 3 2bf  Rx d 8 03 93 13 81 40 FF 80 00 
1503.815546 1 20c  Rx d 8 F3 F5 FF 01 24 0F FF FF 
1503.815759 3 3c7  Rx d 8 EC FF FF 00 1F 41 FF FF 
1503.815783 1 2bf  Rx d 8 03 93 13 81 40 FF 80 00 
1503.815988 3 403  Rx d 8 89 FE 23 E4 23 00 00 3F 
1503.816012 1 53d  Rx d 8 3D 00 8A 64 39 29 29 C8 
1503.816234 3 432  Rx d 8 45 15 00 FF FF FF FF FF 
1503.816250 1 403  Rx d 8 89 FE 23 E4 23 00 00 3F 
1503.816479 3 479  Rx d 8 00 FF FF FF 00 00 C0 FF 
1503.816496 1 432  Rx d 8 45 15 00 FF FF FF FF FF 
1503.816742 3 318  Rx d 8 FF FF F4 02 C0 00 00 00 
1503.816832 1 229  Rx d 8 DE 56 D8 63 E8 1B A7 FF 
1503.816987 3 85  Rx d 8 1A FA 01 00 FC FF FF FF 
1503.817233 3 17e  Rx d 8 BA F3 E0 00 FF FF 7F 2D 
1503.817258 1 85  Rx d 8 1A FA 01 00 FC FF FF FF 
1503.817495 1 17e  Rx d 8 BA F3 E0 00 FF FF 7F 2D 
1503.819297 1 330  Rx d 8 60 FE 00 FF FF FF FF FF 
1503.819379 3 108  Rx d 8 8E FD FE F0 C0 20 16 20 
1503.819535 1 177  Rx d 8 59 FE 0E 86 0E 87 FF FF 
1503.819764 1 108  Rx d 8 8E FD FE F0 C0 20 16 20 
1503.819764 3 20d  Rx d 8 F2 FB FF 01 24 0F FF FF 
1503.820002 1 125  Rx d 8 F4 FE 02 69 05 8A FF FF 
1503.820240 1 126  Rx d 8 8A FE 00 D1 01 FB FF FF 
1503.820477 1 174  Rx d 8 A8 FE 7F F9 FF FF FF FF 
1503.820502 3 352  Rx d 8 46 F3 80 00 FF 80 00 FF 
1503.820715 1 176  Rx d 8 BC FE 0E 87 0E 86 FF FF 
1503.820739 3 342  Rx d 8 CC F3 80 00 80 00 00 01 
1503.820944 1 205  Rx d 8 1F FE 0A 11 EC F2 EC F7 
1503.820985 3 174  Rx d 8 A8 FE 7F F9 FF FF FF FF 
1503.821190 1 206  Rx d 8 E2 FE E0 04 FF FF FF FF 
1503.821214 3 346  Rx d 8 D6 F3 14 55 FF FF FF FF 
1503.821427 1 209  Rx d 8 7A FE 0E 50 4E 10 70 5E 
1503.821452 3 176  Rx d 8 BC FE 0E 87 0E 86 FF FF 
1503.821673 1 214  Rx d 8 A7 FE EA E7 FF FF FF FF 
1503.821690 3 262  Rx d 8 80 00 80 00 AF F4 AD F1 
1503.821903 1 215  Rx d 8 D1 5E 08 0A B5 C8 8A 02 
1503.821927 3 142  Rx d 8 A5 09 2E 7E FF FF FF FF 
1503.822140 1 216  Rx d 8 F3 FE C0 00 C0 00 00 00 
1503.822165 3 3e2  Rx d 8 CF F9 7C C1 00 F8 FD F4 
1503.822378 1 218  Rx d 8 CB FE 2E FF FF FF FF FF 
1503.822394 3 215  Rx d 8 D1 5E 08 0A B5 C8 8A 02 
1503.822615 1 142  Rx d 8 A5 09 2E 7E FF FF FF FF 
1503.822632 3 216  Rx d 8 F3 FE C0 00 C0 00 00 00 
1503.822861 1 1f8  Rx d 8 AF 50 4E 20 41 07 D0 FF 
1503.822869 3 362  Rx d 8 7A F9 3E 8F FF 00 03 FF 
1503.823099 1 225  Rx d 8 9C 0E 00 00 00 00 00 F8 
1503.823156 3 1f8  Rx d 8 AF 50 4E 20 41 07 D0 FF 
1503.823344 1 238  Rx d 8 CF 48 5C 00 FF FF FF FF 
1503.823574 1 245  Rx d 8 15 FE C7 46 C5 46 47 29 
1503.823606 3 238  Rx d 8 CF 48 5C 00 FF FF FF FF 
1503.823819 1 248  Rx d 8 F3 FE 00 00 00 00 FC FF 
1503.823844 3 245  Rx d 8 15 FE C7 46 C5 46 47 29 
1503.824065 1 249  Rx d 8 8F FE 00 00 FF FF FF FF 
1503.824311 1 287  Rx d 8 00 00 00 F8 FF FF FF FF 
1503.824540 1 286  Rx d 8 AA F9 0E 87 00 03 00 A0 
1503.824786 1 2a8  Rx d 8 C1 78 08 3E 07 62 FF FF 
1503.825024 1 305  Rx d 8 CB 7E 2D 11 FF FF FF FF 
1503.825261 1 332  Rx d 8 7B FE 00 BA 46 FF FF FF 
1503.825499 1 342  Rx d 8 CC F3 80 00 80 00 00 01 
1503.825736 1 348  Rx d 8 3A 0C 27 10 00 00 FF FF 
1503.825982 1 352  Rx d 8 46 F3 80 00 FF 80 00 FF 
1503.826220 1 375  Rx d 8 C9 FE CA FA FF FF FF FF 
1503.826457 1 3e2  Rx d 8 CF F9 7C C1 00 F8 FD F4 
1503.826703 1 455  Rx d 8 29 FE 00 00 00 FF FF FF 
1503.826949 1 362  Rx d 8 7A F9 3E 8F FF 00 03 FF 
1503.827023 3 455  Rx d 8 29 FE 00 00 00 FF FF FF 
1503.827178 1 229  Rx d 8 83 57 D8 63 E8 1B A7 FF 
1503.827260 3 17e  Rx d 8 34 F4 E0 00 FF FF 7F 2D 
1503.827424 1 493  Rx d 8 0B 0E 00 00 00 00 00 00 
1503.827498 3 37e  Rx d 8 65 F9 7F 7F FC 80 DF FF 
1503.827661 1 17e  Rx d 8 34 F4 E0 00 FF FF 7F 2D 
1503.827743 3 493  Rx d 8 0B 0E 00 00 00 00 00 00 
1503.827899 1 37e  Rx d 8 65 F9 7F 7F FC 80 DF FF 
1503.828128 1 5e0  Rx d 8 23 0C F4 0C F6 0C F7 1D 
1503.828366 1 1a9  Rx d 8 F8 01 FF 1C 23 FC 58 31 
1503.828604 1 269  Rx d 8 A9 0B 00 48 FF 4E 20 FF 
1503.828620 3 1a9  Rx d 8 F8 01 FF 1C 23 FC 58 31 
1503.828833 1 3a9  Rx d 8 DC 21 28 00 C0 00 FF 7F 
1503.828858 3 269  Rx d 8 A9 0B 00 48 FF 4E 20 FF 
1503.829079 1 219  Rx d 8 C3 FB 01 FF 01 FF BF FF 
1503.829095 3 3a9  Rx d 8 DC 21 28 00 C0 00 FF 7F 
1503.829316 1 165  Rx d 8 D4 DB 00 00 FF FF FF FF 
1503.829349 3 219  Rx d 8 C3 FB 01 FF 01 FF BF FF 
1503.829546 1 5e1  Rx d 8 01 46 46 45 46 45 46 46 
1503.829783 3 106  Rx d 8 74 77 0C 21 3F 0C FC FF 
1503.829783 1 5e2  Rx d 8 00 00 00 5A 01 73 00 00 
1503.830029 3 107  Rx d 8 74 F7 E5 FF FF FF FF FF 
1503.830029 1 5e3  Rx d 8 1F 63 E4 00 00 00 3F C9 
1503.830258 1 5e4  Rx d 8 CB 0E 00 00 40 45 44 45 
1503.830275 3 109  Rx d 8 3E 30 CE C0 FF FF FF FF 
1503.830512 3 11b  Rx d 8 D7 30 FF FF FF FF FF FF 
1503.830758 3 211  Rx d 8 03 3E CE FF FF FF FF FF 
1503.830774 1 11b  Rx d 8 D7 30 FF FF FF FF FF FF 
1503.830996 3 352  Rx d 8 C8 F4 80 00 FF 80 00 FF 
1503.831241 3 342  Rx d 8 42 F4 80 00 80 00 00 01 
1503.831258 1 352  Rx d 8 C8 F4 80 00 FF 80 00 FF 
1503.831479 3 346  Rx d 8 58 F4 14 55 FF FF FF FF 
1503.831520 1 342  Rx d 8 42 F4 80 00 80 00 00 01 
1503.831717 3 262  Rx d 8 80 00 80 00 AF F4 AD F1 
1503.831954 3 102  Rx d 8 95 04 00 E0 00 FF FF FF 
1503.832224 1 102  Rx d 8 95 04 00 E0 00 FF FF FF 
1503.832773 1 1f8  Rx d 8 F2 51 4E 20 41 07 D0 FF 
1503.833044 3 1f8  Rx d 8 F2 51 4E 20 41 07 D0 FF 
1503.836828 1 229  Rx d 8 DF 58 D8 63 E8 1B A7 FF 
1503.836910 3 85  Rx d 8 47 FB 01 00 FC FF FF FF 
1503.837172 1 85  Rx d 8 47 FB 01 00 FC FF FF FF 
1503.837213 3 321  Rx d 8 00 00 FF FF FF FF FF FF 
1503.837418 1 201  Rx d 8 A0 FA 7F FF FF FF FF FF 
1503.837451 3 17e  Rx d 8 69 F5 E0 00 FF FF 7F 2D 
1503.837672 1 3d0  Rx d 8 00 04 C0 00 00 00 00 00 
1503.837697 3 225  Rx d 8 FF FF FF FF AF FF FF FF 
1503.837910 1 17e  Rx d 8 69 F5 E0 00 FF FF 7F 2D 
1503.837951 3 3fc  Rx d 8 7F F2 10 8F FF FF FF FF 
1503.838213 3 201  Rx d 8 A0 FA 7F FF FF FF FF FF 
1503.838467 3 40d  Rx d 8 FF FF 63 10 00 00 00 80 
1503.839179 1 209  Rx d 8 7B F0 0E 50 4E 10 70 5E 
1503.839425 1 126  Rx d 8 8B F0 00 D1 01 FB FF FF 
1503.839655 1 125  Rx d 8 F5 F0 02 69 05 8A FF FF 
1503.839900 1 174  Rx d 8 A9 F0 7F F9 FF FF FF FF 
1503.840130 1 205  Rx d 8 1E F0 0A 11 EC F2 EC F7 
1503.840179 3 174  Rx d 8 A9 F0 7F F9 FF FF FF FF 
1503.840375 1 206  Rx d 8 E3 F0 E0 04 FF FF FF FF 
1503.840507 3 352  Rx d 8 95 F5 80 00 FF 80 00 FF 
1503.840597 1 245  Rx d 8 14 F0 C7 46 C5 46 47 29 
1503.840752 3 342  Rx d 8 1F F5 80 00 80 00 00 01 
1503.840834 1 319  Rx d 8 FF FF FF FF FA 49 5C 49 
1503.840973 3 245  Rx d 8 14 F0 C7 46 C5 46 47 29 
1503.841080 1 352  Rx d 8 95 F5 80 00 FF 80 00 FF 
1503.841219 3 346  Rx d 8 05 F5 14 55 FF FF FF FF 
1503.841326 1 342  Rx d 8 1F F5 80 00 80 00 00 01 
1503.841457 3 262  Rx d 8 80 00 80 00 AF F4 AD F1 
1503.841694 3 142  Rx d 8 42 0A 2E 7E FF FF FF FF 
1503.841932 3 3e2  Rx d 8 28 FA 7C C1 00 F8 FD F4 
1503.841957 1 142  Rx d 8 42 0A 2E 7E FF FF FF FF 
1503.842170 3 362  Rx d 8 9D FA 3E 8F FF 00 03 FF 
1503.842202 1 3e2  Rx d 8 28 FA 7C C1 00 F8 FD F4 
1503.842456 1 362  Rx d 8 9D FA 3E 8F FF 00 03 FF 
1503.842735 1 286  Rx d 8 31 FA 0E 88 00 03 00 A0 
1503.842972 1 1f8  Rx d 8 15 52 4E 20 41 07 D0 FF 
1503.843218 1 238  Rx d 8 CF 48 5C 00 FF FF FF FF 
1503.843243 3 1f8  Rx d 8 15 52 4E 20 41 07 D0 FF 
1503.843456 1 2a8  Rx d 8 9C 79 08 3E 07 62 FF FF 
1503.843488 3 238  Rx d 8 CF 48 5C 00 FF FF FF FF 
1503.847036 1 229  Rx d 8 82 59 D8 63 E8 1B A7 FF 
1503.847347 3 17e  Rx d 8 8E F6 E0 00 FF FF 7F 2D 
1503.847584 3 37e  Rx d 8 82 FA 7F 7F FC 80 DF FF 
1503.847601 1 17e  Rx d 8 8E F6 E0 00 FF FF 7F 2D 
1503.847847 1 37e  Rx d 8 82 FA 7F 7F FC 80 DF FF 
1503.848330 1 1a9  Rx d 8 F8 01 FF 1C 23 FC 58 31 
1503.848567 1 269  Rx d 8 27 0C 00 48 FF 4E 20 FF 
1503.848592 3 1a9  Rx d 8 F8 01 FF 1C 23 FC 58 31 
1503.848805 1 3a9  Rx d 8 DC 21 28 00 C0 00 FF 7F 
1503.848830 3 269  Rx d 8 27 0C 00 48 FF 4E 20 FF 
1503.849043 1 219  Rx d 8 4D FC 01 FF 01 FF BF FF 
1503.849067 3 3a9  Rx d 8 DC 21 28 00 C0 00 FF 7F 
1503.849288 1 165  Rx d 8 5A DC 00 00 FF FF FF FF 
1503.849321 3 219  Rx d 8 4D FC 01 FF 01 FF BF FF 
1503.849804 3 106  Rx d 8 28 78 0C 21 3F 0C FC FF 
1503.850050 3 107  Rx d 8 28 F8 E5 FF FF FF FF FF 
1503.850288 3 10a  Rx d 8 0B FB A4 DB 00 FF FF FF 
1503.850534 3 11b  Rx d 8 D7 30 FF FF FF FF FF FF 
1503.850550 1 10a  Rx d 8 0B FB A4 DB 00 FF FF FF 
1503.850771 3 211  Rx d 8 03 3E CE FF FF FF FF FF 
1503.850796 1 11b  Rx d 8 D7 30 FF FF FF FF FF FF 
1503.851017 3 352  Rx d 8 72 F6 80 00 FF 80 00 FF 
1503.851254 3 342  Rx d 8 F8 F6 80 00 80 00 00 01 
1503.851279 1 352  Rx d 8 72 F6 80 00 FF 80 00 FF 
1503.851492 3 346  Rx d 8 E2 F6 14 55 FF FF FF FF 
1503.851541 1 342  Rx d 8 F8 F6 80 00 80 00 00 01 
1503.851730 3 262  Rx d 8 80 00 80 00 AF F4 AD F1 
1503.851975 3 102  Rx d 8 C8 05 00 E0 00 FF FF FF 
1503.852221 3 41d  Rx d 8 88 3F FF B9 C2 BF FF FF 
1503.852237 1 102  Rx d 8 C8 05 00 E0 00 FF FF FF 
1503.852467 3 502  Rx d 8 02 00 00 20 FF FF FF FF 
1503.852483 1 502  Rx d 8 02 00 00 20 FF FF FF FF 
1503.852754 1 1f8  Rx d 8 48 53 4E 20 41 07 D0 FF 
1503.853016 3 1f8  Rx d 8 48 53 4E 20 41 07 D0 FF 
1503.856907 3 85  Rx d 8 C9 FC 01 00 FC FF FF FF 
1503.856956 1 229  Rx d 8 65 5A D8 63 E8 1B A7 FF 
1503.857194 1 85  Rx d 8 C9 FC 01 00 FC FF FF FF 
1503.857317 3 17e  Rx d 8 D3 F7 E0 00 FF FF 7F 2D 
1503.857570 1 17e  Rx d 8 D3 F7 E0 00 FF FF 7F 2D 
1503.857996 1 1b9  Rx d 8 FF 00 7E 00 FE 01 FE 00 
1503.858226 1 2d5  Rx d 8 E1 FE 27 10 00 8A FF FF 
1503.858250 3 1b9  Rx d 8 FF 00 7E 00 FE 01 FE 00 
1503.858472 1 199  Rx d 8 3F FE 85 3F FF FF FF FF 
1503.858488 3 2d5  Rx d 8 E1 FE 27 10 00 8A FF FF 
1503.858709 1 379  Rx d 8 C8 00 00 00 15 00 00 44 
1503.858955 1 389  Rx d 8 FC FF 44 FF 07 FF 28 FF 
1503.859004 3 379  Rx d 8 C8 00 00 00 15 00 00 44 
1503.859192 1 2e9  Rx d 8 5B FE 00 00 05 B4 00 FF 
1503.859242 3 389  Rx d 8 FC FF 44 FF 07 FF 28 FF 
1503.859430 1 209  Rx d 8 26 F1 0E 50 4E 10 70 5E 
1503.859479 3 2e9  Rx d 8 5B FE 00 00 05 B4 00 FF 
1503.859668 1 126  Rx d 8 D6 F1 00 D1 01 FB FF FF 
1503.859766 3 109  Rx d 8 63 31 CE C0 FF FF FF FF 
1503.859897 1 125  Rx d 8 A8 F1 02 69 05 8A FF FF 
1503.860003 3 10c  Rx d 8 84 FB FF FF 86 03 3E 77 
1503.860143 1 174  Rx d 8 F4 F1 7F F9 FF FF FF FF 
1503.860372 1 205  Rx d 8 43 F1 0A 11 EC F2 EC F7 
1503.860405 3 174  Rx d 8 F4 F1 7F F9 FF FF FF FF 
1503.860610 1 206  Rx d 8 BE F1 E0 04 FF FF FF FF 
1503.860651 3 352  Rx d 8 2F F7 80 00 FF 80 00 FF 
1503.860839 1 245  Rx d 8 49 F1 C7 46 C5 46 47 29 
1503.860896 3 342  Rx d 8 A5 F7 80 00 80 00 00 01 
1503.861085 1 352  Rx d 8 2F F7 80 00 FF 80 00 FF 
1503.861118 3 245  Rx d 8 49 F1 C7 46 C5 46 47 29 
1503.861322 1 342  Rx d 8 A5 F7 80 00 80 00 00 01 
1503.861363 3 346  Rx d 8 BF F7 14 55 FF FF FF FF 
1503.861601 3 262  Rx d 8 80 00 80 00 AF F4 AD F1 
1503.861830 1 286  Rx d 8 B8 FB 0E 8A 00 03 00 A0 
1503.861839 3 142  Rx d 8 1F 0B 2E 7E FF FF FF FF 
1503.862076 3 3e2  Rx d 8 75 FB 7C C1 00 F8 FD F4 
1503.862109 1 142  Rx d 8 1F 0B 2E 7E FF FF FF FF 
1503.862322 3 362  Rx d 8 C0 FB 3E 8F FF 00 03 FF 
1503.862346 1 3e2  Rx d 8 75 FB 7C C1 00 F8 FD F4 
1503.862600 1 362  Rx d 8 C0 FB 3E 8F FF 00 03 FF 
1503.862846 1 1f8  Rx d 8 C6 54 4E 20 41 07 D0 FF 
1503.863084 1 238  Rx d 8 CF 48 5C 00 FF FF FF FF 
1503.863116 3 1f8  Rx d 8 C6 54 4E 20 41 07 D0 FF 
1503.863321 1 2a8  Rx d 8 7B 7A 08 3E 07 62 FF FF 
1503.863354 3 238  Rx d 8 CF 48 5C 00 FF FF FF FF 
1503.864779 3 2bf  Rx d 8 03 93 13 81 40 FF 80 00 
1503.864968 1 318  Rx d 8 FF FF F4 02 C0 00 00 00 
1503.865205 1 2bf  Rx d 8 03 93 13 81 40 FF 80 00 
1503.865230 3 318  Rx d 8 FF FF F4 02 C0 00 00 00 
1503.867040 1 229  Rx d 8 38 5B D8 63 E8 1B A7 FF 
1503.867253 3 17e  Rx d 8 8F F8 E0 00 FF FF 7F 2D 
1503.867499 3 37e  Rx d 8 DF FB 7F 7F FC 80 DF FF 
1503.867516 1 17e  Rx d 8 8F F8 E0 00 FF FF 7F 2D 
1503.867753 1 37e  Rx d 8 DF FB 7F 7F FC 80 DF FF 
1503.868335 1 1a9  Rx d 8 F8 01 FF 1C 23 FC 58 31 
1503.868564 1 269  Rx d 8 7A 0D 00 48 FF 4E 20 FF 
1503.868589 3 1a9  Rx d 8 F8 01 FF 1C 23 FC 58 31 
1503.868802 1 3a9  Rx d 8 DC 21 28 00 C0 00 FF 7F 
1503.868826 3 269  Rx d 8 7A 0D 00 48 FF 4E 20 FF 
1503.869047 1 219  Rx d 8 10 FD 01 FF 01 FF BF FF 
1503.869056 3 108  Rx d 8 69 FE FE F0 C0 20 16 20 
1503.869285 1 165  Rx d 8 07 DD 00 00 FF FF FF FF 
1503.869293 3 3a9  Rx d 8 DC 21 28 00 C0 00 FF 7F 
1503.869523 1 108  Rx d 8 69 FE FE F0 C0 20 16 20 
1503.869547 3 219  Rx d 8 10 FD 01 FF 01 FF BF FF 
1503.869752 1 176  Rx d 8 BE F0 0E 87 0E 84 FF FF 
1503.869785 3 106  Rx d 8 75 79 0C 21 3F 0C FC FF 
1503.869990 1 177  Rx d 8 58 F0 0E 86 0E 87 FF FF 
1503.870022 3 107  Rx d 8 75 F9 E5 FF FF FF FF FF 
1503.870235 1 214  Rx d 8 A6 F0 EA E7 FF FF FF FF 
1503.870276 3 10e  Rx d 8 0F FC F8 FF FF FF FF FF 
1503.870465 1 215  Rx d 8 D0 50 08 0A B5 C8 8A 02 
1503.870514 3 11b  Rx d 8 D7 30 FF FF FF FF FF FF 
1503.870702 1 216  Rx d 8 F2 F0 C0 00 C0 00 00 00 
1503.870743 3 176  Rx d 8 BE F0 0E 87 0E 84 FF FF 
1503.870940 1 11b  Rx d 8 D7 30 FF FF FF FF FF FF 
1503.870989 3 211  Rx d 8 03 3E CE FF FF FF FF FF 
1503.871186 1 218  Rx d 8 CA F0 2E FF FF FF FF FF 
1503.871218 3 215  Rx d 8 D0 50 08 0A B5 C8 8A 02 
1503.871423 1 375  Rx d 8 C8 F0 CA FA FF FF FF FF 
1503.871456 3 216  Rx d 8 F2 F0 C0 00 C0 00 00 00 
1503.871653 1 5e0  Rx d 8 24 0C F4 0C F6 0C F5 1D 
1503.871702 3 352  Rx d 8 73 F8 80 00 FF 80 00 FF 
1503.871947 3 342  Rx d 8 F9 F8 80 00 80 00 00 01 
1503.872021 1 352  Rx d 8 73 F8 80 00 FF 80 00 FF 
1503.872193 3 346  Rx d 8 E3 F8 14 55 FF FF FF FF 
1503.872267 1 342  Rx d 8 F9 F8 80 00 80 00 00 01 
1503.872431 3 262  Rx d 8 80 00 80 00 AF F4 AD F1 
1503.872668 3 102  Rx d 8 2F 06 00 E0 00 FF FF FF 
1503.872701 1 1f8  Rx d 8 9B 55 4E 20 41 07 D0 FF 
1503.872939 1 102  Rx d 8 2F 06 00 E0 00 FF FF FF 
1503.872996 3 1f8  Rx d 8 9B 55 4E 20 41 07 D0 FF 
1503.873184 1 348  Rx d 8 3A 10 27 10 00 00 FF FF 
1503.876830 1 229  Rx d 8 B6 5C D8 63 E8 1B A7 FF 
1503.876912 3 85  Rx d 8 94 FD 01 00 FC FF FF FF 
1503.877174 1 85  Rx d 8 94 FD 01 00 FC FF FF FF 
1503.877346 3 17e  Rx d 8 D2 F9 E0 00 FF FF 7F 2D 
1503.877600 1 17e  Rx d 8 D2 F9 E0 00 FF FF 7F 2D 
1503.879689 1 209  Rx d 8 C1 F2 0E 50 4E 10 70 5E 
1503.879763 3 112  Rx d 8 5F FA FF FF FA FC FF FF 
1503.879926 1 126  Rx d 8 31 F2 00 D1 01 FB FF FF 
1503.880172 1 112  Rx d 8 5F FA FF FF FA FC FF FF 
1503.880402 1 125  Rx d 8 4F F2 02 69 05 8A FF FF 
1503.880500 3 352  Rx d 8 2E F9 80 00 FF 80 00 FF 
1503.880647 1 174  Rx d 8 13 F2 7F F9 FF FF FF FF 
1503.880746 3 342  Rx d 8 A4 F9 80 00 80 00 00 01 
1503.880877 1 205  Rx d 8 8B F2 0A 21 EC F2 EC F7 
1503.880991 3 174  Rx d 8 13 F2 7F F9 FF FF FF FF 
1503.881122 1 206  Rx d 8 59 F2 E0 04 FF FF FF FF 
1503.881229 3 346  Rx d 8 BE F9 14 55 FF FF FF FF 
1503.881344 1 245  Rx d 8 AE F2 C7 46 C5 46 47 29 
1503.881467 3 262  Rx d 8 80 00 80 00 AF F4 AD F1 
1503.881581 1 286  Rx d 8 5C FC 0E 8B 00 03 00 A0 
1503.881704 3 142  Rx d 8 91 0C 2E 7E FF FF FF FF 
1503.881819 1 342  Rx d 8 A4 F9 80 00 80 00 00 01 
1503.881925 3 245  Rx d 8 AE F2 C7 46 C5 46 47 29 
1503.882065 1 352  Rx d 8 2E F9 80 00 FF 80 00 FF 
1503.882171 3 3e2  Rx d 8 FB FC 7C C1 00 F8 FD F4 
1503.882302 1 142  Rx d 8 91 0C 2E 7E FF FF FF FF 
1503.882409 3 362  Rx d 8 4E FC 3E 8F FF 00 03 FF 
1503.882548 1 3e2  Rx d 8 FB FC 7C C1 00 F8 FD F4 
1503.882785 1 1f8  Rx d 8 7C 56 4E 20 41 07 D0 FF 
1503.883031 1 238  Rx d 8 CF 48 5C 00 FF FF FF FF 
1503.883056 3 1f8  Rx d 8 7C 56 4E 20 41 07 D0 FF 
1503.883269 1 2a8  Rx d 8 26 7B 08 3E 07 62 FF FF 
1503.883302 3 238  Rx d 8 CF 48 5C 00 FF FF FF FF 
1503.883506 1 362  Rx d 8 4E FC 3E 8F FF 00 03 FF 
1503.887070 1 229  Rx d 8 EB 5D D8 63 E8 1B A7 FF 
1503.887176 3 40d  Rx d 8 FF FF 63 10 00 00 00 80 
1503.887324 1 3d0  Rx d 8 00 04 C0 00 00 00 00 00 
1503.887414 3 17e  Rx d 8 35 FA E0 00 FF FF 7F 2D 
1503.887660 3 37e  Rx d 8 E5 FC 7F 7F FC 80 CF FF 
1503.887676 1 17e  Rx d 8 35 FA E0 00 FF FF 7F 2D 
1503.887914 1 37e  Rx d 8 E5 FC 7F 7F FC 80 CF FF 
1503.888372 1 1a9  Rx d 8 F8 01 FF 1C 23 FC 58 31 
1503.888602 1 269  Rx d 8 9D 0E 00 48 FF 4E 20 FF 
1503.888626 3 1a9  Rx d 8 F8 01 FF 1C 23 FC 58 31 
1503.888839 1 3a9  Rx d 8 DC 21 28 00 C0 00 FF 7F 
1503.888864 3 269  Rx d 8 9D 0E 00 48 FF 4E 20 FF 
1503.889085 1 219  Rx d 8 F7 FE 01 FF 01 FF BF FF 
1503.889093 3 3a9  Rx d 8 DC 21 28 00 C0 00 FF 7F 
1503.889323 1 165  Rx d 8 E0 DE 00 00 FF FF FF FF 
1503.889355 3 219  Rx d 8 F7 FE 01 FF 01 FF BF FF 
1503.889790 3 106  Rx d 8 92 7A 0C 21 3F 0C FC FF 
1503.889978 1 319  Rx d 8 FF FF FF FF FA 49 5C 49 
1503.890035 3 107  Rx d 8 92 FA E5 FF FF FF FF FF 
1503.890273 3 109  Rx d 8 84 32 CE C0 FF FF FF FF 
1503.890511 3 118  Rx d 8 EA 29 00 00 00 00 00 00 
1503.890756 3 11b  Rx d 8 D7 30 FF FF FF FF FF FF 
1503.890994 3 211  Rx d 8 03 3E CE FF FF FF FF FF 
1503.891018 1 11b  Rx d 8 D7 30 FF FF FF FF FF FF 
1503.891240 3 352  Rx d 8 C9 FA 80 00 FF 80 00 FF 
1503.891477 3 342  Rx d 8 43 FA 80 00 80 00 00 01 
1503.891502 1 352  Rx d 8 C9 FA 80 00 FF 80 00 FF 
1503.891715 3 346  Rx d 8 59 FA 14 55 FF FF FF FF 
1503.891764 1 342  Rx d 8 43 FA 80 00 80 00 00 01 
1503.891960 3 262  Rx d 8 80 00 80 00 AF F4 AD F1 
1503.892198 3 102  Rx d 8 72 07 00 E0 00 FF FF FF 
1503.892460 1 102  Rx d 8 72 07 00 E0 00 FF FF FF 
1503.892698 1 1f8  Rx d 8 21 57 4E 20 41 07 D0 FF 
1503.892944 1 438  Rx d 8 00 00 00 00 00 40 00 C0 
1503.893001 3 1f8  Rx d 8 21 57 4E 20 41 07 D0 FF 
1503.893247 3 438  Rx d 8 00 00 00 00 00 40 00 C0 
1503.894746 1 20b  Rx d 8 AA F6 17 95 48 A0 D2 52 
1503.894992 3 20b  Rx d 8 AA F6 17 95 48 A0 D2 52 
1503.896827 1 229  Rx d 8 0C 5E D8 63 E8 1B A7 FF 
1503.896917 3 85  Rx d 8 73 FE 01 00 FC FF FF FF 
1503.897179 1 85  Rx d 8 73 FE 01 00 FC FF FF FF 
1503.897187 3 488  Rx d 8 94 F3 E7 FF FF F9 FF FF 
1503.897425 3 17e  Rx d 8 68 FB E0 00 FF FF 7F 2D 
1503.897687 1 17e  Rx d 8 68 FB E0 00 FF FF 7F 2D 
1503.899710 1 286  Rx d 8 0A FD 0E 8C 00 03 00 A0 
1503.900177 1 209  Rx d 8 9C F3 0E 50 4E 10 70 5E 
1503.900415 1 126  Rx d 8 6C F3 00 D1 01 FB FF FF 
1503.900505 3 352  Rx d 8 94 FB 80 00 FF 80 00 FF 
1503.900644 1 125  Rx d 8 12 F3 02 69 05 8A FF FF 
1503.900751 3 342  Rx d 8 1E FB 80 00 80 00 00 01 
1503.900882 1 174  Rx d 8 4E F3 7F F9 FF FF FF FF 
1503.900988 3 346  Rx d 8 04 FB 14 55 FF FF FF FF 
1503.901111 1 205  Rx d 8 D6 F3 0A 21 EC F2 EC F7 
1503.901226 3 174  Rx d 8 4E F3 7F F9 FF FF FF FF 
1503.901357 1 206  Rx d 8 04 F3 E0 04 FF FF FF FF 
1503.901463 3 262  Rx d 8 80 00 80 00 AF F4 AD F1 
1503.901586 1 245  Rx d 8 F3 F3 C7 46 C5 46 47 29 
1503.901701 3 142  Rx d 8 CC 0D 2E 7E FF FF FF FF 
1503.901824 1 342  Rx d 8 1E FB 80 00 80 00 00 01 
1503.901930 3 245  Rx d 8 F3 F3 C7 46 C5 46 47 29 
1503.902069 1 352  Rx d 8 94 FB 80 00 FF 80 00 FF 
1503.902168 3 3e2  Rx d 8 A6 FD 7C C1 00 F8 FD F4 
1503.902315 1 142  Rx d 8 CC 0D 2E 7E FF FF FF FF 
1503.902413 3 362  Rx d 8 13 FD 3E 8F FF 00 03 FF 
1503.902553 1 3e2  Rx d 8 A6 FD 7C C1 00 F8 FD F4 
1503.902790 1 1f8  Rx d 8 7D 58 4E 20 41 07 D0 FF 
1503.903036 1 238  Rx d 8 CF 48 5C 00 FF FF FF FF 
1503.903061 3 1f8  Rx d 8 7D 58 4E 20 41 07 D0 FF 
1503.903274 1 2a8  Rx d 8 A8 7C 08 3E 07 62 FF FF 
1503.903298 3 238  Rx d 8 CF 48 5C 00 FF FF FF FF 
1503.903511 1 362  Rx d 8 13 FD 3E 8F FF 00 03 FF 
1503.906911 3 381  Rx d 8 5E F0 A9 A0 EA FF FF FF 
1503.907165 1 381  Rx d 8 5E F0 A9 A0 EA FF FF FF 
1503.907247 3 17e  Rx d 8 E6 FC E0 00 FF FF 7F 2D 
1503.907394 1 229  Rx d 8 0D 50 D8 63 E8 1B A7 FF 
1503.907484 3 37e  Rx d 8 B8 FD 7F 7F FC 80 CF FF 
1503.907632 1 17e  Rx d 8 E6 FC E0 00 FF FF 7F 2D 
1503.907878 1 37e  Rx d 8 B8 FD 7F 7F FC 80 CF FF 
1503.908770 1 1a9  Rx d 8 F8 01 FF 1C 23 FC 58 31 
1503.909008 1 269  Rx d 8 9C 00 00 48 FF 4E 20 FF 
1503.909033 3 1a9  Rx d 8 F8 01 FF 1C 23 FC 58 31 
1503.909246 1 3a9  Rx d 8 DC 21 28 00 C0 00 FF 7F 
1503.909270 3 269  Rx d 8 9C 00 00 48 FF 4E 20 FF 
1503.909483 1 219  Rx d 8 F6 F0 01 FF 01 FF BF FF 
1503.909508 3 3a9  Rx d 8 DC 21 28 00 C0 00 FF 7F 
1503.909729 1 165  Rx d 8 E1 D0 00 00 FF FF FF FF 
1503.909762 3 219  Rx d 8 F6 F0 01 FF 01 FF BF FF 
1503.909975 1 1b9  Rx d 8 FF 00 7E 00 FE 01 FE 00 
1503.910007 3 103  Rx d 8 FF 00 F8 00 00 00 00 00 
1503.910212 1 2d5  Rx d 8 E0 F0 27 10 00 8A FF FF 
1503.910253 3 105  Rx d 8 ED FC C4 F3 FF FF FF FF 
1503.910450 1 199  Rx d 8 3E F0 85 3F FF FF FF FF 
1503.910483 3 106  Rx d 8 CF 7B 0C 21 3F 0C FC FF 
1503.910696 1 379  Rx d 8 C8 00 00 00 15 00 00 44 
1503.910728 3 107  Rx d 8 CF FB E5 FF FF FF FF FF 
1503.910941 1 288  Rx d 8 00 FC FF FF FF FF FF FF 
1503.910974 3 11b  Rx d 8 D7 30 FF FF FF FF FF FF 
1503.911179 1 389  Rx d 8 FC FF 44 FF 07 FF 28 FF 
1503.911203 3 12f  Rx d 8 87 FC F0 CC FF FF FF FF 
1503.911416 1 11b  Rx d 8 D7 30 FF FF FF FF FF FF 
1503.911449 3 1b9  Rx d 8 FF 00 7E 00 FE 01 FE 00 
1503.911654 1 12f  Rx d 8 87 FC F0 CC FF FF FF FF 
1503.911687 3 211  Rx d 8 03 3E CE FF FF FF FF FF 
1503.911892 1 2e9  Rx d 8 5A F0 00 00 05 B4 00 FF 
1503.911924 3 2d5  Rx d 8 E0 F0 27 10 00 8A FF FF 
1503.912129 1 2f5  Rx d 8 B2 F0 0F FF F8 1D F8 1D 
1503.912170 3 352  Rx d 8 1A FC 80 00 FF 80 00 FF 
1503.912383 1 3e0  Rx d 8 F7 F0 00 00 64 00 00 FF 
1503.912416 3 2e9  Rx d 8 5A F0 00 00 05 B4 00 FF 
1503.912621 1 1f8  Rx d 8 20 59 4E 20 41 07 D0 FF 
1503.912662 3 342  Rx d 8 90 FC 80 00 80 00 00 01 
1503.912866 1 2a1  Rx d 8 A5 F0 FC 00 41 88 00 00 
1503.912899 3 346  Rx d 8 8A FC 14 55 FF FF FF FF 
1503.913104 1 2aa  Rx d 8 E7 C0 40 FF FF FF FF FF 
1503.913137 3 1f8  Rx d 8 20 59 4E 20 41 07 D0 FF 
1503.913350 1 220  Rx d 8 71 C0 F8 FF FF FF FF FF 
1503.913383 3 262  Rx d 8 80 00 80 00 AF F4 AD F1 
1503.913596 1 342  Rx d 8 90 FC 80 00 80 00 00 01 
1503.913628 3 102  Rx d 8 2E 08 00 E0 00 FF FF FF 
1503.913841 1 352  Rx d 8 1A FC 80 00 FF 80 00 FF 
1503.913866 3 2a1  Rx d 8 A5 F0 FC 00 41 88 00 00 
1503.914087 1 102  Rx d 8 2E 08 00 E0 00 FF FF FF 
1503.914103 3 379  Rx d 8 C8 00 00 00 15 00 00 44 
1503.914341 1 479  Rx d 8 00 FF FF FF 00 00 C0 FF 
1503.914349 3 389  Rx d 8 FC FF 44 FF 07 FF 28 FF 
1503.914595 3 3e0  Rx d 8 F7 F0 00 00 64 00 00 FF 
1503.914849 3 2aa  Rx d 8 E7 C0 40 FF FF FF FF FF 
1503.914996 1 318  Rx d 8 FF FF F4 02 C0 00 00 00 
1503.915111 3 479  Rx d 8 00 FF FF FF 00 00 C0 FF 
1503.915357 3 2ab  Rx d 8 D4 97 F1 FF FF FF FF FF 
1503.915594 3 20c  Rx d 8 14 F6 FF 01 24 0F FF FF 
1503.915611 1 2ab  Rx d 8 D4 97 F1 FF FF FF FF FF 
1503.915832 3 2bf  Rx d 8 03 93 13 81 40 FF 80 00 
1503.915865 1 20c  Rx d 8 14 F6 FF 01 24 0F FF FF 
1503.916086 3 318  Rx d 8 FF FF F4 02 C0 00 00 00 
1503.916102 1 2bf  Rx d 8 03 93 13 81 40 FF 80 00 
1503.916332 3 3c7  Rx d 8 EC FF FF 00 1F 41 FF FF 
1503.916569 3 403  Rx d 8 88 F0 23 E4 23 00 00 3F 
1503.916815 3 432  Rx d 8 A2 16 00 FF FF FF FF FF 
1503.916831 1 403  Rx d 8 88 F0 23 E4 23 00 00 3F 
1503.917053 3 85  Rx d 8 72 F0 01 00 FC FF FF FF 
1503.917061 1 229  Rx d 8 50 51 D8 63 E8 1B A7 FF 
1503.917290 3 17e  Rx d 8 BB FD E0 00 FF FF 7F 2D 
1503.917307 1 432  Rx d 8 A2 16 00 FF FF FF FF FF 
1503.917544 1 85  Rx d 8 72 F0 01 00 FC FF FF FF 
1503.917782 1 17e  Rx d 8 BB FD E0 00 FF FF 7F 2D 
1503.918765 1 286  Rx d 8 3F FE 0E 8C 00 03 00 AA 
1503.919002 1 20a  Rx d 8 BD F9 04 7C 4F 28 F0 FF 
1503.919256 3 20a  Rx d 8 BD F9 04 7C 4F 28 F0 FF 
1503.919494 3 108  Rx d 8 68 F0 FE F0 C0 20 16 20 
1503.919748 1 108  Rx d 8 68 F0 FE F0 C0 20 16 20 
1503.919781 3 109  Rx d 8 D9 33 CE C0 FF FF FF FF 
1503.920026 3 20d  Rx d 8 7C FC FF 01 24 0F FF FF 
1503.920469 1 330  Rx d 8 61 F0 00 FF FF FF FF FF 
1503.920501 3 352  Rx d 8 47 FD 80 00 FF 80 00 FF 
1503.920698 1 177  Rx d 8 6F F1 0E 87 0E 87 FF FF 
1503.920747 3 342  Rx d 8 CD FD 80 00 80 00 00 01 
1503.920936 1 126  Rx d 8 E2 F4 00 D1 01 FB FF FF 
1503.920985 3 346  Rx d 8 D7 FD 14 55 FF FF FF FF 
1503.921165 1 125  Rx d 8 9C F4 02 69 05 8A FF FF 
1503.921222 3 262  Rx d 8 80 00 80 00 AF F4 AD F1 
1503.921411 1 174  Rx d 8 C0 F4 7F F9 FF FF FF FF 
1503.921493 3 142  Rx d 8 2B 0E 2E 7E FF FF FF FF 
1503.921640 1 176  Rx d 8 E0 F1 0E 87 0E 86 FF FF 
1503.921738 3 174  Rx d 8 C0 F4 7F F9 FF FF FF FF 
1503.921869 1 205  Rx d 8 58 F4 0A 21 EC F2 EC F7 
1503.921976 3 3e2  Rx d 8 41 FE 7C C1 00 F8 FD F4 
1503.922107 1 142  Rx d 8 2B 0E 2E 7E FF FF FF FF 
1503.922214 3 176  Rx d 8 E0 F1 0E 87 0E 86 FF FF 
1503.922345 1 206  Rx d 8 8A F4 E0 04 FF FF FF FF 
1503.922451 3 362  Rx d 8 F4 FE 3E 8F FF 00 03 FF 
1503.922582 1 209  Rx d 8 12 F4 0E 50 4E 10 70 5E 
1503.922820 1 1f8  Rx d 8 C7 5A 4E 20 41 07 D0 FF 
1503.923066 1 214  Rx d 8 FB F1 EA E7 FF FF FF FF 
1503.923090 3 1f8  Rx d 8 C7 5A 4E 20 41 07 D0 FF 
1503.923287 1 215  Rx d 8 8D 51 08 0A B5 C8 8A 02 
1503.923524 1 216  Rx d 8 AF F1 C0 00 C0 00 00 00 
1503.923541 3 215  Rx d 8 8D 51 08 0A B5 C8 8A 02 
1503.923770 1 218  Rx d 8 97 F1 2E FF FF FF FF FF 
1503.923786 3 216  Rx d 8 AF F1 C0 00 C0 00 00 00 
1503.924016 1 225  Rx d 8 9D 00 00 00 00 00 00 F8 
1503.924253 1 238  Rx d 8 CF 48 5C 00 FF FF FF FF 
1503.924483 1 245  Rx d 8 7D F4 C7 46 C5 46 47 29 
1503.924515 3 238  Rx d 8 CF 48 5C 00 FF FF FF FF 
1503.924728 1 248  Rx d 8 F2 F0 00 00 00 00 FC FF 
1503.924761 3 245  Rx d 8 7D F4 C7 46 C5 46 47 29 
1503.924974 1 249  Rx d 8 8E F0 00 00 FF FF FF FF 
1503.925212 1 2a8  Rx d 8 F5 7D 08 3E 07 62 FF FF 
1503.925449 1 305  Rx d 8 CA 70 2D 11 FF FF FF FF 
1503.925687 1 332  Rx d 8 7A F0 00 BA 46 FF FF FF 
1503.925933 1 342  Rx d 8 CD FD 80 00 80 00 00 01 
1503.926170 1 348  Rx d 8 3A 10 27 10 00 00 FF FF 
1503.926416 1 352  Rx d 8 47 FD 80 00 FF 80 00 FF 
1503.926662 1 375  Rx d 8 95 F1 CA FA FF FF FF FF 
1503.926908 1 287  Rx d 8 00 00 00 F8 FF FF FF FF 
1503.927137 1 229  Rx d 8 B7 52 D8 63 E8 1B A7 FF 
1503.927153 3 17e  Rx d 8 5C FE E0 00 FF FF 7F 2D 
1503.927375 1 3e2  Rx d 8 41 FE 7C C1 00 F8 FD F4 
1503.927391 3 37e  Rx d 8 EB FE 7F 7F FC 80 DF FF 
1503.927620 1 455  Rx d 8 28 F0 00 00 00 FF FF FF 
1503.927858 1 362  Rx d 8 F4 FE 3E 8F FF 00 03 FF 
1503.927891 3 455  Rx d 8 28 F0 00 00 00 FF FF FF 
1503.928104 1 37e  Rx d 8 EB FE 7F 7F FC 80 DF FF 
1503.928341 1 17e  Rx d 8 5C FE E0 00 FF FF 7F 2D 
1503.928579 1 1a9  Rx d 8 F8 01 FF 1C 23 FC 58 31 
1503.928816 1 269  Rx d 8 C1 01 00 48 FF 4E 20 FF 
1503.928833 3 1a9  Rx d 8 F8 01 FF 1C 23 FC 58 31 
1503.929046 1 3a9  Rx d 8 DC 21 28 00 C0 00 FF 7F 
1503.929070 3 269  Rx d 8 C1 01 00 48 FF 4E 20 FF 
1503.929291 1 219  Rx d 8 AB F1 01 FF 01 FF BF FF 
1503.929308 3 3a9  Rx d 8 DC 21 28 00 C0 00 FF 7F 
1503.929529 1 165  Rx d 8 BC D1 00 00 FF FF FF FF 
1503.929562 3 219  Rx d 8 AB F1 01 FF 01 FF BF FF 
1503.929758 1 5e0  Rx d 8 25 0C F5 0C F6 0C F7 1D 
1503.929799 3 106  Rx d 8 41 7C 0C 21 3F 0C FC FF 
1503.929980 1 5e1  Rx d 8 02 46 46 45 46 45 46 46 
1503.930045 3 107  Rx d 8 41 FC E5 FF FF FF FF FF 
1503.930225 1 5e2  Rx d 8 00 00 00 5A 01 73 00 00 
1503.930283 3 11b  Rx d 8 D7 30 FF FF FF FF FF FF 
1503.930471 1 5e3  Rx d 8 1F 63 E0 00 00 00 3F C9 
1503.930528 3 211  Rx d 8 03 3E CE FF FF FF FF FF 
1503.930709 1 11b  Rx d 8 D7 30 FF FF FF FF FF FF 
1503.930774 3 352  Rx d 8 A0 FE 80 00 FF 80 00 FF 
1503.930946 1 5e4  Rx d 8 CA 00 00 00 40 45 44 45 
1503.931020 3 342  Rx d 8 2A FE 80 00 80 00 00 01 
1503.931192 1 352  Rx d 8 A0 FE 80 00 FF 80 00 FF 
1503.931258 3 346  Rx d 8 30 FE 14 55 FF FF FF FF 
1503.931438 1 342  Rx d 8 2A FE 80 00 80 00 00 01 
1503.931495 3 262  Rx d 8 80 00 80 00 AF F4 AD F1 
1503.931741 3 102  Rx d 8 73 09 00 E0 00 FF FF FF 
1503.932019 1 102  Rx d 8 73 09 00 E0 00 FF FF FF 
1503.932585 1 1f8  Rx d 8 9A 5B 4E 20 41 07 D0 FF 
1503.932847 3 1f8  Rx d 8 9A 5B 4E 20 41 07 D0 FF 
1503.936861 1 229  Rx d 8 EA 53 D8 63 E8 1B A7 FF 
1503.936910 3 85  Rx d 8 2F F1 01 00 FC FF FF FF 
1503.937164 3 17e  Rx d 8 5D F0 E0 00 FF FF 7F 2D 
1503.937180 1 85  Rx d 8 2F F1 01 00 FC FF FF FF 
1503.937410 3 225  Rx d 8 FF FF FF FF AF FF FF FF 
1503.937434 1 3d0  Rx d 8 00 04 C0 00 00 00 00 00 
1503.937664 3 201  Rx d 8 FD FB 7F FF FF FF FF FF 
1503.937680 1 201  Rx d 8 FD FB 7F FF FF FF FF FF 
1503.937918 1 286  Rx d 8 3E F0 0E 8C 00 03 00 AA 
1503.937918 3 40d  Rx d 8 FF FF 63 10 00 00 00 80 
1503.938155 1 17e  Rx d 8 5D F0 E0 00 FF FF 7F 2D 
1503.939998 1 319  Rx d 8 FF FF FF FF FA 49 5C 49 
1503.940498 3 352  Rx d 8 A1 F0 80 00 FF 80 00 FF 
1503.940678 1 209  Rx d 8 4F F5 0E 50 4E 10 70 5E 
1503.940744 3 342  Rx d 8 2B F0 80 00 80 00 00 01 
1503.940916 1 126  Rx d 8 BF F5 00 D1 01 FB FF FF 
1503.940981 3 346  Rx d 8 31 F0 14 55 FF FF FF FF 
1503.941153 1 125  Rx d 8 C1 F5 02 69 05 8A FF FF 
1503.941227 3 262  Rx d 8 80 00 80 00 AF F4 AD F1 
1503.941399 1 174  Rx d 8 9D F5 7F F9 FF FF FF FF 
1503.941498 3 142  Rx d 8 2A 00 2E 7E FF FF FF FF 
1503.941629 1 205  Rx d 8 2E F5 2B 10 EC F2 EC F7 
1503.941743 3 174  Rx d 8 9D F5 7F F9 FF FF FF FF 
1503.941866 1 206  Rx d 8 D7 F5 E0 04 FF FF FF FF 
1503.941981 3 3e2  Rx d 8 40 F0 7C C1 00 F8 FD F4 
1503.942112 1 142  Rx d 8 2A 00 2E 7E FF FF FF FF 
1503.942218 3 362  Rx d 8 F5 F0 3E 8F FF 00 03 FF 
1503.942341 1 245  Rx d 8 20 F5 C7 46 C5 46 47 29 
1503.942579 1 1f8  Rx d 8 14 5C 4E 20 41 07 D0 FF 
1503.942587 3 245  Rx d 8 20 F5 C7 46 C5 46 47 29 
1503.942816 1 238  Rx d 8 CF 48 5C 00 FF FF FF FF 
1503.942866 3 1f8  Rx d 8 14 5C 4E 20 41 07 D0 FF 
1503.943062 1 2a8  Rx d 8 12 7E 08 3E 07 62 FF FF 
1503.943103 3 238  Rx d 8 CF 48 5C 00 FF FF FF FF 
1503.943308 1 342  Rx d 8 2B F0 80 00 80 00 00 01 
1503.943546 1 352  Rx d 8 A1 F0 80 00 FF 80 00 FF 
1503.943791 1 3e2  Rx d 8 40 F0 7C C1 00 F8 FD F4 
1503.944045 1 362  Rx d 8 F5 F0 3E 8F FF 00 03 FF 
1503.945757 1 52c  Rx d 8 2C 40 00 6C FF FF FF FF 
1503.947035 1 229  Rx d 8 64 54 D8 63 E8 1B A7 FF 
1503.947216 3 17e  Rx d 8 00 F1 E0 00 FF FF 7F 2D 
1503.947461 3 37e  Rx d 8 5E F0 7F 7F FC 80 CF FF 
1503.947478 1 17e  Rx d 8 00 F1 E0 00 FF FF 7F 2D 
1503.947723 1 37e  Rx d 8 5E F0 7F 7F FC 80 CF FF 
1503.948330 1 1a9  Rx d 8 F8 01 FF 1C 23 FC 58 31 
1503.948567 1 269  Rx d 8 26 02 00 48 FF 4E 20 FF 
1503.948584 3 1a9  Rx d 8 F8 01 FF 1C 23 FC 58 31 
1503.948805 1 3a9  Rx d 8 DC 21 28 00 C0 00 FF 7F 
1503.948821 3 269  Rx d 8 26 02 00 48 FF 4E 20 FF 
1503.949042 1 219  Rx d 8 4C F2 01 FF 01 FF BF FF 
1503.949067 3 3a9  Rx d 8 DC 21 28 00 C0 00 FF 7F 
1503.949280 1 165  Rx d 8 5B D2 00 00 FF FF FF FF 
1503.949313 3 219  Rx d 8 4C F2 01 FF 01 FF BF FF 
1503.949812 3 106  Rx d 8 1C 7D 0C 21 3F 0C FC FF 
1503.950058 3 107  Rx d 8 1C FD E5 FF FF FF FF FF 
1503.950296 3 109  Rx d 8 57 34 CE C0 FF FF FF FF 
1503.950533 3 10a  Rx d 8 AC FC A4 B3 00 FF FF FF 
1503.950771 3 11b  Rx d 8 D7 30 FF FF FF FF FF FF 
1503.950787 1 10a  Rx d 8 AC FC A4 B3 00 FF FF FF 
1503.951017 3 211  Rx d 8 03 3E CE FF FF FF FF FF 
1503.951033 1 11b  Rx d 8 D7 30 FF FF FF FF FF FF 
1503.951254 3 352  Rx d 8 FC F1 80 00 FF 80 00 FF 
1503.951500 3 342  Rx d 8 76 F1 80 00 80 00 00 01 
1503.951516 1 352  Rx d 8 FC F1 80 00 FF 80 00 FF 
1503.951738 3 346  Rx d 8 6C F1 14 55 FF FF FF FF 
1503.951778 1 342  Rx d 8 76 F1 80 00 80 00 00 01 
1503.951975 3 262  Rx d 8 80 00 80 00 AF F4 AD F1 
1503.952213 3 102  Rx d 8 94 0A 00 E0 00 FF FF FF 
1503.952450 3 41d  Rx d 8 88 3F FF B9 C2 BF FF FF 
1503.952475 1 102  Rx d 8 94 0A 00 E0 00 FF FF FF 
1503.952712 1 1f8  Rx d 8 49 5D 4E 20 41 07 D0 FF 
1503.953007 3 1f8  Rx d 8 49 5D 4E 20 41 07 D0 FF 
1503.956743 1 286  Rx d 8 68 F1 0E 8B 00 03 00 AA 
1503.956907 3 85  Rx d 8 C8 F2 01 00 FC FF FF FF 
1503.957005 1 229  Rx d 8 39 55 D8 63 E8 1B A7 FF 
1503.957234 3 17e  Rx d 8 E7 F2 E0 00 FF FF 7F 2D 
1503.957243 1 85  Rx d 8 C8 F2 01 00 FC FF FF FF 
1503.957496 1 17e  Rx d 8 E7 F2 E0 00 FF FF 7F 2D 
1503.958037 1 1b9  Rx d 8 FF 00 7E 00 FE 01 FE 00 
1503.958275 1 2d5  Rx d 8 BD F1 27 10 00 8A FF FF 
1503.958299 3 1b9  Rx d 8 FF 00 7E 00 FE 01 FE 00 
1503.958512 1 199  Rx d 8 63 F1 85 3F FF FF FF FF 
1503.958537 3 2d5  Rx d 8 BD F1 27 10 00 8A FF FF 
1503.958750 1 379  Rx d 8 C8 00 00 00 15 00 00 44 
1503.958987 1 389  Rx d 8 FC FF 44 FF 07 FF 28 FF 
1503.959012 3 379  Rx d 8 C8 00 00 00 15 00 00 44 
1503.959233 1 2e9  Rx d 8 07 F1 00 00 05 B4 00 FF 
1503.959250 3 389  Rx d 8 FC FF 44 FF 07 FF 28 FF 
1503.959487 3 2e9  Rx d 8 07 F1 00 00 05 B4 00 FF 
1503.959757 3 10c  Rx d 8 0A FC FF FF 86 03 3E 77 
1503.960503 3 352  Rx d 8 1B F2 80 00 FF 80 00 FF 
1503.960716 1 209  Rx d 8 A8 F6 0E 50 4E 10 70 5E 
1503.960749 3 342  Rx d 8 91 F2 80 00 80 00 00 01 
1503.960945 1 126  Rx d 8 58 F6 00 D1 01 FB FF FF 
1503.960986 3 346  Rx d 8 8B F2 14 55 FF FF FF FF 
1503.961183 1 125  Rx d 8 26 F6 02 69 05 8A FF FF 
1503.961224 3 262  Rx d 8 80 00 80 00 AF F4 AD F1 
1503.961429 1 174  Rx d 8 7A F6 7F F9 FF FF FF FF 
1503.961494 3 142  Rx d 8 77 01 2E 7E FF FF FF FF 
1503.961650 1 205  Rx d 8 C9 F6 2B 10 EC F2 EC F7 
1503.961740 3 174  Rx d 8 7A F6 7F F9 FF FF FF FF 
1503.961896 1 206  Rx d 8 30 F6 E0 04 FF FF FF FF 
1503.961978 3 3e2  Rx d 8 1D F1 7C C1 00 F8 FD F4 
1503.962133 1 142  Rx d 8 77 01 2E 7E FF FF FF FF 
1503.962215 3 362  Rx d 8 A8 F1 3E 8F FF 00 03 FF 
1503.962363 1 245  Rx d 8 C7 F6 C7 46 C5 46 47 29 
1503.962600 1 1f8  Rx d 8 AE 5E 4E 20 41 07 D0 FF 
1503.962608 3 245  Rx d 8 C7 F6 C7 46 C5 46 47 29 
1503.962846 1 238  Rx d 8 CF 48 5C 00 FF FF FF FF 
1503.962895 3 1f8  Rx d 8 AE 5E 4E 20 41 07 D0 FF 
1503.963083 1 2a8  Rx d 8 13 70 08 3E 07 62 FF FF 
1503.963133 3 238  Rx d 8 CF 48 5C 00 FF FF FF FF 
1503.963329 1 342  Rx d 8 91 F2 80 00 80 00 00 01 
1503.963575 1 352  Rx d 8 1B F2 80 00 FF 80 00 FF 
1503.963821 1 3e2  Rx d 8 1D F1 7C C1 00 F8 FD F4 
1503.964066 1 362  Rx d 8 A8 F1 3E 8F FF 00 03 FF 
1503.964230 3 2bf  Rx d 8 03 93 13 81 40 FF 80 00 
1503.964492 1 2bf  Rx d 8 03 93 13 81 40 FF 80 00 
1503.965025 1 318  Rx d 8 FF FF F4 02 C0 00 00 00 
1503.965295 3 318  Rx d 8 FF FF F4 02 C0 00 00 00 
1503.967040 1 229  Rx d 8 DE 56 D8 63 E8 1B A7 FF 
1503.967147 3 17e  Rx d 8 BA F3 E0 00 FF FF 7F 2D 
1503.967384 3 37e  Rx d 8 03 F1 7F 7F FC 80 CF FF 
1503.967401 1 17e  Rx d 8 BA F3 E0 00 FF FF 7F 2D 
1503.967638 1 37e  Rx d 8 03 F1 7F 7F FC 80 CF FF 
1503.968335 1 1a9  Rx d 8 F8 01 FF 1C 23 FC 58 31 
1503.968572 1 269  Rx d 8 7B 03 00 48 FF 4E 20 FF 
1503.968597 3 1a9  Rx d 8 F8 01 FF 1C 23 FC 58 31 
1503.968810 1 3a9  Rx d 8 DC 21 28 00 C0 00 FF 7F 
1503.968826 3 269  Rx d 8 7B 03 00 48 FF 4E 20 FF 
1503.969047 1 219  Rx d 8 11 F3 01 FF 01 FF BF FF 
1503.969072 3 108  Rx d 8 35 F1 FE F0 C0 20 16 20 
1503.969293 1 165  Rx d 8 06 D3 00 00 FF FF FF FF 
1503.969301 3 3a9  Rx d 8 DC 21 28 00 C0 00 FF 7F 
1503.969531 1 108  Rx d 8 35 F1 FE F0 C0 20 16 20 
1503.969555 3 219  Rx d 8 11 F3 01 FF 01 FF BF FF 
1503.969801 3 106  Rx d 8 FB 7E 0C 21 3F 0C FC FF 
1503.970047 3 107  Rx d 8 FB FE E5 FF FF FF FF FF 
1503.970292 3 10e  Rx d 8 0F FC F8 FF FF FF FF FF 
1503.970538 3 11b  Rx d 8 D7 30 FF FF FF FF FF FF 
1503.970776 3 211  Rx d 8 03 3E CE FF FF FF FF FF 
1503.970792 1 11b  Rx d 8 D7 30 FF FF FF FF FF FF 
1503.971021 3 352  Rx d 8 46 F3 80 00 FF 80 00 FF 
1503.971038 1 176  Rx d 8 07 F2 0E 87 0E 86 FF FF 
1503.971259 3 342  Rx d 8 CC F3 80 00 80 00 00 01 
1503.971267 1 177  Rx d 8 E2 F2 0E 86 0E 87 FF FF 
1503.971497 3 176  Rx d 8 07 F2 0E 87 0E 86 FF FF 
1503.971505 1 214  Rx d 8 1C F2 EA E7 FF FF FF FF 
1503.971734 3 346  Rx d 8 D6 F3 14 55 FF FF FF FF 
1503.971734 1 215  Rx d 8 6A 52 08 0A B5 C8 8A 02 
1503.971972 3 262  Rx d 8 80 00 80 00 AF F4 AD F1 
1503.971980 1 216  Rx d 8 48 F2 C0 00 C0 00 00 00 
1503.972209 3 102  Rx d 8 C9 0B 00 E0 00 FF FF FF 
1503.972218 1 218  Rx d 8 70 F2 2E FF FF FF FF FF 
1503.972439 3 215  Rx d 8 6A 52 08 0A B5 C8 8A 02 
1503.972455 1 342  Rx d 8 CC F3 80 00 80 00 00 01 
1503.972676 3 216  Rx d 8 48 F2 C0 00 C0 00 00 00 
1503.972701 1 102  Rx d 8 C9 0B 00 E0 00 FF FF FF 
1503.972938 1 1f8  Rx d 8 AF 50 4E 20 41 07 D0 FF 
1503.973184 1 348  Rx d 8 3A 10 27 10 00 00 FF FF 
1503.973209 3 1f8  Rx d 8 AF 50 4E 20 41 07 D0 FF 
1503.973422 1 352  Rx d 8 46 F3 80 00 FF 80 00 FF 
1503.973659 1 375  Rx d 8 72 F2 CA FA FF FF FF FF 
1503.973889 1 5e0  Rx d 8 26 0C F6 0C F6 0C F7 1D 
1503.975724 1 286  Rx d 8 8E F2 0E 8A 00 03 00 B4 
1503.976830 1 229  Rx d 8 83 57 D8 63 E8 1B A7 FF 
1503.976912 3 85  Rx d 8 95 F3 01 00 FC FF FF FF 
1503.977174 1 85  Rx d 8 95 F3 01 00 FC FF FF FF 
1503.977247 3 17e  Rx d 8 34 F4 E0 00 FF FF 7F 2D 
1503.977510 1 17e  Rx d 8 34 F4 E0 00 FF FF 7F 2D 
1503.979762 3 109  Rx d 8 0A 35 CE C0 FF FF FF FF 
1503.980000 3 112  Rx d 8 02 FB FF FF FA FC FF FF 
1503.980262 1 112  Rx d 8 02 FB FF FF FA FC FF FF 
1503.980500 3 352  Rx d 8 C8 F4 80 00 FF 80 00 FF 
1503.980737 3 342  Rx d 8 42 F4 80 00 80 00 00 01 
1503.980762 1 352  Rx d 8 C8 F4 80 00 FF 80 00 FF 
1503.980975 3 346  Rx d 8 58 F4 14 55 FF FF FF FF 
1503.980999 1 126  Rx d 8 05 F7 00 D1 01 FB FF FF 
1503.981212 3 262  Rx d 8 80 00 80 00 AF F4 AD F1 
1503.981245 1 174  Rx d 8 27 F7 7F F9 FF FF FF FF 
1503.981474 1 125  Rx d 8 7B F7 02 69 05 8A FF FF 
1503.981499 3 142  Rx d 8 90 02 2E 7E FF FF FF FF 
1503.981704 1 205  Rx d 8 94 F7 2B 10 EC F2 EC F7 
1503.981745 3 174  Rx d 8 27 F7 7F F9 FF FF FF FF 
1503.981950 1 206  Rx d 8 6D F7 E0 04 FF FF FF FF 
1503.981982 3 3e2  Rx d 8 FA F2 7C C1 00 F8 FD F4 
1503.982187 1 142  Rx d 8 90 02 2E 7E FF FF FF FF 
1503.982220 3 362  Rx d 8 4F F2 3E 8F FF 00 03 FF 
1503.982425 1 209  Rx d 8 F5 F7 0E 50 4E 10 70 5E 
1503.982662 1 1f8  Rx d 8 F2 51 4E 20 41 07 D0 FF 
1503.982908 1 238  Rx d 8 CF 48 5C 00 FF FF FF FF 
1503.982924 3 1f8  Rx d 8 F2 51 4E 20 41 07 D0 FF 
1503.983129 1 245  Rx d 8 9A F7 C7 46 C5 46 47 29 
1503.983170 3 238  Rx d 8 CF 48 5C 00 FF FF FF FF 
1503.983367 1 2a8  Rx d 8 4E 71 08 3E 07 62 FF FF 
1503.983408 3 245  Rx d 8 9A F7 C7 46 C5 46 47 29 
1503.983613 1 342  Rx d 8 42 F4 80 00 80 00 00 01 
1503.983850 1 3e2  Rx d 8 FA F2 7C C1 00 F8 FD F4 
1503.984104 1 362  Rx d 8 4F F2 3E 8F FF 00 03 FF 
1503.987037 1 229  Rx d 8 DF 58 D8 63 E8 1B A7 FF 
1503.987184 3 40d  Rx d 8 FF FF 63 10 00 00 00 80 
1503.987283 1 3d0  Rx d 8 00 04 C0 00 00 00 00 00 
1503.987422 3 17e  Rx d 8 69 F5 E0 00 FF FF 7F 2D 
1503.987659 3 37e  Rx d 8 E4 F2 7F 7F FC 80 CF FF 
1503.987684 1 17e  Rx d 8 69 F5 E0 00 FF FF 7F 2D 
1503.987913 1 37e  Rx d 8 E4 F2 7F 7F FC 80 CF FF 
1503.988331 1 1a9  Rx d 8 F8 01 FF 1C 23 FC 58 31 
1503.988569 1 269  Rx d 8 F5 04 00 48 FF 4E 20 FF 
1503.988585 3 1a9  Rx d 8 F8 01 FF 1C 23 FC 58 31 
1503.988806 1 3a9  Rx d 8 DC 21 28 00 C0 00 FF 7F 
1503.988823 3 269  Rx d 8 F5 04 00 48 FF 4E 20 FF 
1503.989044 1 219  Rx d 8 9F F4 01 FF 01 FF BF FF 
1503.989060 3 3a9  Rx d 8 DC 21 28 00 C0 00 FF 7F 
1503.989290 1 165  Rx d 8 88 D4 00 00 FF FF FF FF 
1503.989314 3 219  Rx d 8 9F F4 01 FF 01 FF BF FF 
1503.989781 3 106  Rx d 8 FA 70 0C 21 3F 0C FC FF 
1503.990019 3 107  Rx d 8 FA F0 E5 FF FF FF FF FF 
1503.990019 1 319  Rx d 8 FF FF FF FF FA 4A 5C 4A 
1503.990264 3 11b  Rx d 8 D7 30 FF FF FF FF FF FF 
1503.990502 3 211  Rx d 8 03 3E CE FF FF FF FF FF 
1503.990518 1 11b  Rx d 8 D7 30 FF FF FF FF FF FF 
1503.990748 3 352  Rx d 8 95 F5 80 00 FF 80 00 FF 
1503.990994 3 342  Rx d 8 1F F5 80 00 80 00 00 01 
1503.991018 1 352  Rx d 8 95 F5 80 00 FF 80 00 FF 
1503.991231 3 346  Rx d 8 05 F5 14 55 FF FF FF FF 
1503.991288 1 342  Rx d 8 1F F5 80 00 80 00 00 01 
1503.991469 3 262  Rx d 8 80 00 80 00 AF F4 AD F1 
1503.991714 3 102  Rx d 8 47 0C 00 E0 00 FF FF FF 
1503.992026 1 102  Rx d 8 47 0C 00 E0 00 FF FF FF 
1503.992509 1 1f8  Rx d 8 15 52 4E 20 41 07 D0 FF 
1503.992755 1 438  Rx d 8 00 00 00 00 00 40 00 C0 
1503.992779 3 1f8  Rx d 8 15 52 4E 20 41 07 D0 FF 
1503.993033 3 438  Rx d 8 00 00 00 00 00 40 00 C0 
1503.994754 1 286  Rx d 8 6D F3 0E 89 00 03 00 B4 
1503.996826 1 229  Rx d 8 82 59 D8 63 E8 1B A7 FF 
1503.996908 3 85  Rx d 8 1B F4 01 00 FC FF FF FF 
1503.997179 1 85  Rx d 8 1B F4 01 00 FC FF FF FF 
1503.997416 3 17e  Rx d 8 8E F6 E0 00 FF FF 7F 2D 
1503.997670 1 17e  Rx d 8 8E F6 E0 00 FF FF 7F 2D 
1503.999702 1 20b  Rx d 8 F7 F7 17 95 48 A0 D2 52 
1503.999980 3 20b  Rx d 8 F7 F7 17 95 48 A0 D2 52 
1504.000496 3 352  Rx d 8 72 F6 80 00 FF 80 00 FF 
1504.000742 3 342  Rx d 8 F8 F6 80 00 80 00 00 01 
1504.000758 1 352  Rx d 8 72 F6 80 00 FF 80 00 FF 
1504.000971 3 346  Rx d 8 E2 F6 14 55 FF FF FF FF 
1504.000996 1 126  Rx d 8 59 F8 00 D1 01 FB FF FF 
1504.001217 3 262  Rx d 8 80 00 80 00 AF F4 AD F1 
1504.001242 1 174  Rx d 8 7B F8 7F F9 FF FF FF FF 
1504.001471 1 125  Rx d 8 27 F8 02 69 05 8A FF FF 
1504.001496 3 142  Rx d 8 CD 03 2E 7E FF FF FF FF 
1504.001709 1 205  Rx d 8 13 F8 0A 14 EC F2 EC F7 
1504.001733 3 174  Rx d 8 7B F8 7F F9 FF FF FF FF 
1504.001946 1 206  Rx d 8 31 F8 E0 04 FF FF FF FF 
1504.001971 3 3e2  Rx d 8 A7 F3 7C C1 00 F8 FD F4 
1504.002192 1 142  Rx d 8 CD 03 2E 7E FF FF FF FF 
1504.002208 3 362  Rx d 8 12 F3 3E 8F FF 00 03 FF 
1504.002421 1 209  Rx d 8 A9 F8 0E 50 4E 10 70 5E 
1504.002659 1 1f8  Rx d 8 48 53 4E 20 41 07 D0 FF 
1504.002905 1 238  Rx d 8 CF 48 5C 00 FF FF FF FF 
1504.002921 3 1f8  Rx d 8 48 53 4E 20 41 07 D0 FF 
1504.003126 1 245  Rx d 8 C6 F8 C7 46 C5 46 47 29 
1504.003167 3 238  Rx d 8 CF 48 5C 00 FF FF FF FF 
1504.003363 1 2a8  Rx d 8 A9 72 08 3E 07 62 FF FF 
1504.003404 3 245  Rx d 8 C6 F8 C7 46 C5 46 47 29 
1504.003609 1 342  Rx d 8 F8 F6 80 00 80 00 00 01 
1504.003847 1 3e2  Rx d 8 A7 F3 7C C1 00 F8 FD F4 
1504.004093 1 362  Rx d 8 12 F3 3E 8F FF 00 03 FF 
1504.007320 1 229  Rx d 8 65 5A D8 63 E8 1B A7 FF 
1504.007337 3 17e  Rx d 8 D3 F7 E0 00 FF FF 7F 2D 
1504.007574 3 37e  Rx d 8 B9 F3 7F 7F FC 80 CF FF 
1504.007599 1 17e  Rx d 8 D3 F7 E0 00 FF FF 7F 2D 
1504.007836 1 37e  Rx d 8 B9 F3 7F 7F FC 80 CF FF 
1504.008778 1 1a9  Rx d 8 F8 01 FF 1C 23 FC 58 31 
1504.009008 1 269  Rx d 8 A8 05 00 48 FF 4E 20 FF 
1504.009032 3 1a9  Rx d 8 F8 01 FF 1C 23 FC 58 31 
