date 2026-06-20 16:11:05.558
base hex  timestamps absolute
no internal events logged
// TOSUN TSMaster V2024.7.21.1150
11.528776 2 6ff  Rx d 8 02 3E 80 00 00 00 00 00 
11.529013 2 681  Rx d 8 03 22 F1 90 00 00 00 00 
11.530119 2 601  Rx d 8 10 14 62 F1 90 52 4C 4E 
11.530570 2 681  Rx d 8 30 00 00 00 00 00 00 00 
11.533724 2 601  Rx d 8 21 56 42 4C 39 4B 35 52 
11.555056 2 601  Rx d 8 22 48 37 31 36 36 36 37 
11.628178 2 684  Rx d 8 03 22 F1 08 00 00 00 00 
11.700488 2 604  Rx d 8 03 7F 22 78 00 00 00 00 
11.766942 2 604  Rx d 8 10 40 62 F1 08 00 34 48 
11.767515 2 684  Rx d 8 30 00 00 00 00 00 00 00 
11.774200 2 604  Rx d 8 21 37 31 36 36 36 37 01 
11.774626 2 604  Rx d 8 22 01 64 41 55 5F 64 00 
11.775019 2 604  Rx d 8 23 45 56 06 03 07 65 56 
11.775412 2 604  Rx d 8 24 55 00 02 01 00 00 00 
11.776068 2 604  Rx d 8 25 00 00 00 00 00 00 00 
11.776436 2 604  Rx d 8 26 00 00 00 00 00 00 00 
11.776813 2 604  Rx d 8 27 00 00 00 00 00 00 00 
11.777182 2 604  Rx d 8 28 00 00 00 00 72 9C D2 
11.777673 2 604  Rx d 8 29 48 78 00 00 00 00 00 
12.076706 2 684  Rx d 8 03 22 F1 11 00 00 00 00 
12.127988 2 604  Rx d 8 03 7F 22 78 00 00 00 00 
12.327488 2 604  Rx d 8 11 03 62 F1 11 FF 24 04 
12.328028 2 684  Rx d 8 30 00 00 00 00 00 00 00 
12.333722 2 604  Rx d 8 21 07 60 02 01 31 01 01 
12.334197 2 604  Rx d 8 22 08 11 11 11 02 11 11 
12.334525 2 604  Rx d 8 23 11 11 11 21 11 21 01 
12.334885 2 604  Rx d 8 24 10 11 11 11 11 11 11 
12.335213 2 604  Rx d 8 25 11 31 11 11 11 11 11 
12.335549 2 604  Rx d 8 26 11 11 11 11 11 01 11 
12.336196 2 604  Rx d 8 27 11 21 15 11 22 14 01 
12.336523 2 604  Rx d 8 28 11 11 11 21 11 11 11 
12.336900 2 604  Rx d 8 29 11 11 12 21 20 21 11 
12.337171 2 604  Rx d 8 2A 11 21 12 12 10 12 11 
12.337654 2 604  Rx d 8 2B 11 11 01 01 21 11 11 
12.337973 2 604  Rx d 8 2C 11 11 11 11 11 11 11 
12.338449 2 604  Rx d 8 2D 11 11 11 11 11 21 11 
12.338915 2 604  Rx d 8 2E 11 11 01 11 21 11 11 
12.339243 2 604  Rx d 8 2F 11 11 20 11 12 11 10 
12.339612 2 604  Rx d 8 20 17 01 00 00 00 00 00 
12.339972 2 604  Rx d 8 21 00 00 00 00 00 00 00 
12.340325 2 604  Rx d 8 22 00 00 00 00 00 00 00 
12.341775 2 604  Rx d 8 23 00 00 00 00 00 00 00 
12.343683 2 604  Rx d 8 24 00 00 00 00 00 00 00 
12.344470 2 604  Rx d 8 25 00 00 00 00 00 00 00 
12.344830 2 604  Rx d 8 26 00 00 00 00 00 00 00 
12.345313 2 604  Rx d 8 27 00 00 00 00 00 00 00 
12.346428 2 604  Rx d 8 28 00 00 00 00 00 00 00 
12.346854 2 604  Rx d 8 29 00 00 00 00 00 00 00 
12.347206 2 604  Rx d 8 2A 00 00 00 00 00 00 00 
12.347558 2 604  Rx d 8 2B 00 00 00 00 00 00 00 
12.347935 2 604  Rx d 8 2C 00 00 00 00 00 00 00 
12.348631 2 604  Rx d 8 2D 00 00 00 00 00 00 00 
12.349123 2 604  Rx d 8 2E 00 00 00 00 00 00 00 
12.349614 2 604  Rx d 8 2F 00 00 00 00 00 00 00 
12.355406 2 604  Rx d 8 20 00 00 00 00 00 00 00 
12.356217 2 604  Rx d 8 21 00 00 00 00 00 00 00 
12.356618 2 604  Rx d 8 22 00 00 00 00 00 00 00 
12.357012 2 604  Rx d 8 23 00 00 00 00 00 00 00 
12.357364 2 604  Rx d 8 24 00 00 00 00 00 00 00 
12.357937 2 604  Rx d 8 25 A8 00 00 00 00 00 00 
13.076245 2 684  Rx d 8 03 22 F1 12 00 00 00 00 
13.127535 2 604  Rx d 8 03 7F 22 78 00 00 00 00 
13.317728 2 604  Rx d 8 11 03 62 F1 12 FF 24 04 
13.318359 2 684  Rx d 8 30 00 00 00 00 00 00 00 
13.323791 2 604  Rx d 8 21 07 60 02 01 31 01 01 
13.324266 2 604  Rx d 8 22 08 11 11 11 02 11 11 
13.324716 2 604  Rx d 8 23 11 11 11 21 11 21 11 
13.325150 2 604  Rx d 8 24 11 11 11 11 11 11 11 
13.325707 2 604  Rx d 8 25 11 31 11 11 11 11 11 
13.326510 2 604  Rx d 8 26 11 11 11 11 11 01 11 
13.326838 2 604  Rx d 8 27 11 21 15 11 22 14 01 
13.327166 2 604  Rx d 8 28 11 11 11 21 11 11 11 
13.327641 2 604  Rx d 8 29 11 11 12 21 20 21 11 
13.328149 2 604  Rx d 8 2A 11 21 12 12 10 12 11 
13.328485 2 604  Rx d 8 2B 11 11 01 01 21 11 11 
13.328829 2 604  Rx d 8 2C 11 11 11 11 11 11 11 
13.329156 2 604  Rx d 8 2D 11 11 11 11 11 21 11 
13.329492 2 604  Rx d 8 2E 21 11 01 11 21 11 11 
13.330213 2 604  Rx d 8 2F 11 11 22 11 12 11 11 
13.330573 2 604  Rx d 8 20 17 01 00 00 00 00 00 
13.331786 2 604  Rx d 8 21 00 00 00 00 00 00 00 
13.333727 2 604  Rx d 8 22 00 00 00 00 00 00 00 
13.334186 2 604  Rx d 8 23 00 00 00 00 00 00 00 
13.334612 2 604  Rx d 8 24 00 00 00 00 00 00 00 
13.335153 2 604  Rx d 8 25 00 00 00 00 00 00 00 
13.335497 2 604  Rx d 8 26 00 00 00 00 00 00 00 
13.335931 2 604  Rx d 8 27 00 00 00 00 00 00 00 
13.336521 2 604  Rx d 8 28 00 00 00 00 00 00 00 
13.336939 2 604  Rx d 8 29 00 00 00 00 00 00 00 
13.337283 2 604  Rx d 8 2A 00 00 00 00 00 00 00 
13.337782 2 604  Rx d 8 2B 00 00 00 00 00 00 00 
13.338184 2 604  Rx d 8 2C 00 00 00 00 00 00 00 
13.338520 2 604  Rx d 8 2D 00 00 00 00 00 00 00 
13.339019 2 604  Rx d 8 2E 00 00 00 00 00 00 00 
13.339372 2 604  Rx d 8 2F 00 00 00 00 00 00 00 
13.339724 2 604  Rx d 8 20 00 00 00 00 00 00 00 
13.340142 2 604  Rx d 8 21 00 00 00 00 00 00 00 
13.340625 2 604  Rx d 8 22 00 00 00 00 00 00 00 
13.343025 2 604  Rx d 8 23 00 00 00 00 00 00 00 
13.343517 2 604  Rx d 8 24 00 00 00 00 00 00 00 
13.344148 2 604  Rx d 8 25 F8 00 00 00 00 00 00 
14.077094 2 684  Rx d 8 03 22 F1 5C 00 00 00 00 
14.127631 2 604  Rx d 8 03 7F 22 78 00 00 00 00 
14.218939 2 604  Rx d 8 10 17 62 F1 5C 33 41 2E 
14.219537 2 684  Rx d 8 30 00 00 00 00 00 00 00 
14.223927 2 604  Rx d 8 21 31 2E 39 2E 34 00 00 
14.224452 2 604  Rx d 8 22 00 00 00 00 00 00 00 
14.224943 2 604  Rx d 8 23 00 00 00 00 00 00 00 
14.431308 2 684  Rx d 8 03 22 F1 90 00 00 00 00 
14.478863 2 604  Rx d 8 03 7F 22 78 00 00 00 00 
14.539426 2 6ff  Rx d 8 02 3E 80 00 00 00 00 00 
14.555196 2 604  Rx d 8 10 14 62 F1 90 52 4C 4E 
14.555892 2 684  Rx d 8 30 00 00 00 00 00 00 00 
14.557170 2 604  Rx d 8 21 56 42 4C 39 4B 35 52 
14.557645 2 604  Rx d 8 22 48 37 31 36 36 36 37 
14.777199 2 682  Rx d 8 03 22 F1 11 00 00 00 00 
14.818216 2 602  Rx d 8 03 7F 22 78 CC CC CC CC 
14.908140 2 602  Rx d 8 11 03 62 F1 11 FF 24 04 
14.908656 2 682  Rx d 8 30 00 00 00 00 00 00 00 
14.908926 2 602  Rx d 8 21 07 60 02 01 00 01 11 
14.909188 2 602  Rx d 8 22 08 11 11 11 02 11 11 
14.909450 2 602  Rx d 8 23 11 11 11 21 11 21 11 
14.909704 2 602  Rx d 8 24 11 11 11 11 11 11 11 
14.909958 2 602  Rx d 8 25 11 31 11 11 11 11 11 
14.910212 2 602  Rx d 8 26 11 11 11 11 11 11 11 
14.910466 2 602  Rx d 8 27 11 21 15 11 22 14 01 
14.910720 2 602  Rx d 8 28 11 11 11 21 11 11 11 
14.910974 2 602  Rx d 8 29 11 11 12 21 21 21 11 
14.911228 2 602  Rx d 8 2A 11 21 12 12 10 12 11 
14.911482 2 602  Rx d 8 2B 11 11 11 01 21 11 11 
14.911736 2 602  Rx d 8 2C 11 11 11 11 11 11 11 
14.911990 2 602  Rx d 8 2D 11 11 11 11 11 21 11 
14.912244 2 602  Rx d 8 2E 11 11 01 11 21 11 11 
14.912498 2 602  Rx d 8 2F 11 11 22 11 12 11 11 
14.912768 2 602  Rx d 8 20 17 01 00 00 00 00 00 
14.913047 2 602  Rx d 8 21 00 00 00 00 00 00 00 
14.913325 2 602  Rx d 8 22 00 00 00 00 00 00 00 
14.913596 2 602  Rx d 8 23 00 00 00 00 00 00 00 
14.913874 2 602  Rx d 8 24 00 00 00 00 00 00 00 
14.914144 2 602  Rx d 8 25 00 00 00 00 00 00 00 
14.914415 2 602  Rx d 8 26 00 00 00 00 00 00 00 
14.914693 2 602  Rx d 8 27 00 00 00 00 00 00 00 
14.914972 2 602  Rx d 8 28 00 00 00 00 00 00 00 
14.915250 2 602  Rx d 8 29 00 00 00 00 00 00 00 
14.915529 2 602  Rx d 8 2A 00 00 00 00 00 00 00 
14.915807 2 602  Rx d 8 2B 00 00 00 00 00 00 00 
14.916078 2 602  Rx d 8 2C 00 00 00 00 00 00 00 
14.916356 2 602  Rx d 8 2D 00 00 00 00 00 00 00 
14.916635 2 602  Rx d 8 2E 00 00 00 00 00 00 00 
14.916954 2 602  Rx d 8 2F 00 00 00 00 00 00 00 
14.917233 2 602  Rx d 8 20 00 00 00 00 00 00 00 
14.917511 2 602  Rx d 8 21 00 00 00 00 00 00 00 
14.917782 2 602  Rx d 8 22 00 00 00 00 00 00 00 
14.918060 2 602  Rx d 8 23 00 00 00 00 00 00 00 
14.918339 2 602  Rx d 8 24 00 00 00 00 00 00 00 
14.918593 2 602  Rx d 8 25 D0 CC CC CC CC CC CC 
15.639489 2 682  Rx d 8 03 22 F1 12 00 00 00 00 
15.688157 2 602  Rx d 8 03 7F 22 78 CC CC CC CC 
15.778146 2 602  Rx d 8 11 03 62 F1 12 FF 24 04 
15.778998 2 682  Rx d 8 30 00 00 00 00 00 00 00 
15.779269 2 602  Rx d 8 21 07 60 02 01 31 01 01 
15.779531 2 602  Rx d 8 22 08 11 11 11 02 11 11 
15.779785 2 602  Rx d 8 23 11 11 11 21 11 21 01 
15.780039 2 602  Rx d 8 24 10 11 11 11 11 11 11 
15.780293 2 602  Rx d 8 25 11 31 11 11 11 11 11 
15.780547 2 602  Rx d 8 26 11 11 11 11 11 01 11 
15.780809 2 602  Rx d 8 27 11 21 15 11 22 14 01 
15.781055 2 602  Rx d 8 28 11 11 11 21 11 11 11 
15.781317 2 602  Rx d 8 29 11 11 12 21 20 21 11 
15.781571 2 602  Rx d 8 2A 11 21 12 12 10 12 11 
15.781825 2 602  Rx d 8 2B 11 11 01 01 21 11 11 
15.782079 2 602  Rx d 8 2C 11 11 11 11 11 11 11 
15.782333 2 602  Rx d 8 2D 11 11 11 11 11 21 11 
15.782587 2 602  Rx d 8 2E 11 11 01 11 21 11 11 
15.782840 2 602  Rx d 8 2F 11 11 20 11 12 11 10 
15.783111 2 602  Rx d 8 20 17 01 00 00 00 00 00 
15.783389 2 602  Rx d 8 21 00 00 00 00 00 00 00 
15.783660 2 602  Rx d 8 22 00 00 00 00 00 00 00 
15.783946 2 602  Rx d 8 23 00 00 00 00 00 00 00 
15.784225 2 602  Rx d 8 24 00 00 00 00 00 00 00 
15.784495 2 602  Rx d 8 25 00 00 00 00 00 00 00 
15.784774 2 602  Rx d 8 26 00 00 00 00 00 00 00 
15.785052 2 602  Rx d 8 27 00 00 00 00 00 00 00 
15.785331 2 602  Rx d 8 28 00 00 00 00 00 00 00 
15.785609 2 602  Rx d 8 29 00 00 00 00 00 00 00 
15.785888 2 602  Rx d 8 2A 00 00 00 00 00 00 00 
15.786166 2 602  Rx d 8 2B 00 00 00 00 00 00 00 
15.786445 2 602  Rx d 8 2C 00 00 00 00 00 00 00 
15.786715 2 602  Rx d 8 2D 00 00 00 00 00 00 00 
15.786994 2 602  Rx d 8 2E 00 00 00 00 00 00 00 
15.787272 2 602  Rx d 8 2F 00 00 00 00 00 00 00 
15.787543 2 602  Rx d 8 20 00 00 00 00 00 00 00 
15.787821 2 602  Rx d 8 21 00 00 00 00 00 00 00 
15.788092 2 602  Rx d 8 22 00 00 00 00 00 00 00 
15.788370 2 602  Rx d 8 23 00 00 00 00 00 00 00 
15.788640 2 602  Rx d 8 24 00 00 00 00 00 00 00 
15.788911 2 602  Rx d 8 25 A8 CC CC CC CC CC CC 
16.524864 2 681  Rx d 8 03 22 F1 22 00 00 00 00 
16.525863 2 601  Rx d 8 05 62 F1 22 29 AE 00 00 
16.669731 2 6bd  Rx d 8 03 22 F1 94 00 00 00 00 
16.677145 2 63d  Rx d 8 10 0D 62 F1 94 56 46 32 
16.678152 2 6bd  Rx d 8 30 00 00 00 00 00 00 00 
16.679455 2 63d  Rx d 8 21 35 30 38 30 34 2E 31 
16.874588 2 681  Rx d 8 03 22 F1 90 00 00 00 00 
16.876087 2 601  Rx d 8 10 14 62 F1 90 52 4C 4E 
16.876645 2 681  Rx d 8 30 00 00 00 00 00 00 00 
16.877677 2 601  Rx d 8 21 56 42 4C 39 4B 35 52 
16.902482 2 601  Rx d 8 22 48 37 31 36 36 36 37 
17.119136 2 688  Rx d 8 03 22 FA 1B 00 00 00 00 
17.126091 2 608  Rx d 8 10 08 62 FA 1B 0C 01 00 
17.126558 2 688  Rx d 8 30 00 00 00 00 00 00 00 
17.127500 2 608  Rx d 8 21 00 00 AA AA AA AA AA 
17.309125 2 6ac  Rx d 8 03 22 F1 94 00 00 00 00 
17.320372 2 62c  Rx d 8 10 0D 62 F1 94 56 46 32 
17.320929 2 6ac  Rx d 8 30 00 00 00 00 00 00 00 
17.323518 2 62c  Rx d 8 21 36 30 31 31 33 2E 30 
17.526229 2 6ac  Rx d 8 03 22 F1 90 00 00 00 00 
17.540508 2 62c  Rx d 8 10 14 62 F1 90 52 4C 4E 
17.540999 2 6ac  Rx d 8 30 00 00 00 00 00 00 00 
17.547864 2 62c  Rx d 8 21 56 42 4C 39 4B 35 52 
17.549503 2 62c  Rx d 8 22 48 37 31 36 36 36 37 
17.552304 2 6ff  Rx d 8 02 3E 80 00 00 00 00 00 
17.763928 2 693  Rx d 8 03 22 F1 90 00 00 00 00 
17.771432 2 613  Rx d 8 10 14 62 F1 90 52 4C 4E 
17.771907 2 693  Rx d 8 30 00 00 00 00 00 00 00 
17.776265 2 613  Rx d 8 21 56 42 4C 39 4B 35 52 
17.782680 2 613  Rx d 8 22 48 37 31 36 36 36 37 
164.832070 2 6ff  Rx d 8 02 3E 80 00 00 00 00 00 
164.832324 2 684  Rx d 8 02 10 03 00 00 00 00 00 
164.859226 2 604  Rx d 8 06 50 03 00 32 00 C8 00 
166.250949 2 684  Rx d 8 02 27 01 00 00 00 00 00 
166.261615 2 604  Rx d 8 10 12 67 01 35 DF B1 4D 
166.262246 2 684  Rx d 8 30 00 00 00 00 00 00 00 
166.264040 2 604  Rx d 8 21 BD FA 5F 31 F0 19 89 
166.264375 2 604  Rx d 8 22 C7 35 8B 54 17 00 00 
166.323366 2 684  Rx d 8 10 12 27 02 47 D1 AA 3E 
166.332181 2 604  Rx d 8 30 08 14 00 00 00 00 00 
166.333631 2 684  Rx d 8 21 C2 F2 68 F5 18 AE 96 
166.364351 2 684  Rx d 8 22 DC 21 B1 AE 11 00 00 
166.419139 2 604  Rx d 8 03 7F 27 78 00 00 00 00 
166.506359 2 604  Rx d 8 02 67 02 00 00 00 00 00 
167.736330 2 684  Rx d 8 10 14 2E F1 90 52 4C 4E 
167.743441 2 604  Rx d 8 30 08 14 00 00 00 00 00 
167.750847 2 684  Rx d 8 21 56 42 4C 39 4B 38 52 
167.781591 2 684  Rx d 8 22 48 37 32 32 35 32 37 
167.828581 2 604  Rx d 8 03 7F 2E 78 00 00 00 00 
167.843162 2 6ff  Rx d 8 02 3E 80 00 00 00 00 00 
167.908911 2 604  Rx d 8 03 6E F1 90 00 00 00 00 
170.610928 2 684  Rx d 8 04 14 FF FF FF 00 00 00 
170.628876 2 604  Rx d 8 01 54 00 00 00 00 00 00 
170.843466 2 6ff  Rx d 8 02 3E 80 00 00 00 00 00 
171.624139 2 684  Rx d 8 02 10 01 00 00 00 00 00 
171.628866 2 604  Rx d 8 06 50 01 00 32 00 C8 00 
172.999281 2 684  Rx d 8 03 22 F1 90 00 00 00 00 
173.051194 2 604  Rx d 8 03 7F 22 78 00 00 00 00 
173.129239 2 604  Rx d 8 10 14 62 F1 90 52 4C 4E 
173.129943 2 684  Rx d 8 30 00 00 00 00 00 00 00 
173.135391 2 604  Rx d 8 21 56 42 4C 39 4B 38 52 
173.135735 2 604  Rx d 8 22 48 37 32 32 35 32 37 
173.845498 2 6ff  Rx d 8 02 3E 80 00 00 00 00 00 
176.861235 2 6ff  Rx d 8 02 3E 80 00 00 00 00 00 
179.866897 2 6ff  Rx d 8 02 3E 80 00 00 00 00 00 
182.875728 2 6ff  Rx d 8 02 3E 80 00 00 00 00 00 
185.887247 2 6ff  Rx d 8 02 3E 80 00 00 00 00 00 
188.891433 2 6ff  Rx d 8 02 3E 80 00 00 00 00 00 
191.906384 2 6ff  Rx d 8 02 3E 80 00 00 00 00 00 
194.908678 2 6ff  Rx d 8 02 3E 80 00 00 00 00 00 
197.919566 2 6ff  Rx d 8 02 3E 80 00 00 00 00 00 
200.931871 2 6ff  Rx d 8 02 3E 80 00 00 00 00 00 
203.937507 2 6ff  Rx d 8 02 3E 80 00 00 00 00 00 
206.945839 2 6ff  Rx d 8 02 3E 80 00 00 00 00 00 
209.955842 2 6ff  Rx d 8 02 3E 80 00 00 00 00 00 
212.956990 2 6ff  Rx d 8 02 3E 80 00 00 00 00 00 
215.965788 2 6ff  Rx d 8 02 3E 80 00 00 00 00 00 
218.967689 2 6ff  Rx d 8 02 3E 80 00 00 00 00 00 
221.982485 2 6ff  Rx d 8 02 3E 80 00 00 00 00 00 
224.993020 2 6ff  Rx d 8 02 3E 80 00 00 00 00 00 
228.005374 2 6ff  Rx d 8 02 3E 80 00 00 00 00 00 
231.018908 2 6ff  Rx d 8 02 3E 80 00 00 00 00 00 
234.023242 2 6ff  Rx d 8 02 3E 80 00 00 00 00 00 
237.038307 2 6ff  Rx d 8 02 3E 80 00 00 00 00 00 
245.590452 2 688  Rx d 8 02 10 03 00 00 00 00 00 
245.590698 2 6ff  Rx d 8 02 3E 80 00 00 00 00 00 
245.596441 2 608  Rx d 8 06 50 03 00 32 00 C8 AA 
246.775294 2 688  Rx d 8 02 27 01 00 00 00 00 00 
246.782167 2 608  Rx d 8 10 12 67 01 41 9D 6E AB 
246.782814 2 688  Rx d 8 30 00 00 00 00 00 00 00 
246.784223 2 608  Rx d 8 21 D9 48 F1 D1 DF AE 8C 
246.785657 2 608  Rx d 8 22 3F A3 54 A5 6B AA AA 
246.836071 2 688  Rx d 8 10 12 27 02 F9 6A 0A AD 
246.836857 2 608  Rx d 8 30 02 0A AA AA AA AA AA 
246.848400 2 688  Rx d 8 21 5A 3B 38 93 88 46 36 
246.863923 2 688  Rx d 8 22 35 18 80 69 12 00 00 
246.870903 2 608  Rx d 8 02 67 02 AA AA AA AA AA 
247.823968 2 688  Rx d 8 10 14 2E F1 90 52 4C 4E 
247.826410 2 608  Rx d 8 30 02 0A AA AA AA AA AA 
247.835486 2 688  Rx d 8 21 56 42 4C 39 4B 58 53 
247.850896 2 688  Rx d 8 22 54 37 39 30 30 31 30 
247.864371 2 608  Rx d 8 03 6E F1 90 AA AA AA AA 
248.605584 2 6ff  Rx d 8 02 3E 80 00 00 00 00 00 
249.198217 2 688  Rx d 8 04 14 FF FF FF 00 00 00 
249.229789 2 608  Rx d 8 01 54 AA AA AA AA AA AA 
250.463513 2 688  Rx d 8 02 10 01 00 00 00 00 00 
250.474277 2 608  Rx d 8 06 50 01 00 32 00 C8 AA 
251.607378 2 6ff  Rx d 8 02 3E 80 00 00 00 00 00 
254.607846 2 6ff  Rx d 8 02 3E 80 00 00 00 00 00 
257.608559 2 6ff  Rx d 8 02 3E 80 00 00 00 00 00 
260.617882 2 6ff  Rx d 8 02 3E 80 00 00 00 00 00 
263.631497 2 6ff  Rx d 8 02 3E 80 00 00 00 00 00 
266.645596 2 6ff  Rx d 8 02 3E 80 00 00 00 00 00 
268.407671 2 684  Rx d 8 02 10 03 00 00 00 00 00 
268.421704 2 604  Rx d 8 06 50 03 00 32 00 C8 00 
269.409020 2 684  Rx d 8 02 27 01 00 00 00 00 00 
269.422086 2 604  Rx d 8 10 12 67 01 2A 19 37 DE 
269.422570 2 684  Rx d 8 30 00 00 00 00 00 00 00 
269.426272 2 604  Rx d 8 21 27 6D 59 58 C1 9C 8E 
269.426723 2 604  Rx d 8 22 14 F4 EC A8 A8 00 00 
269.486623 2 684  Rx d 8 10 12 27 02 43 54 F4 93 
269.495585 2 604  Rx d 8 30 08 14 00 00 00 00 00 
269.500279 2 684  Rx d 8 21 23 42 DB 22 C4 35 4B 
269.531310 2 684  Rx d 8 22 58 D4 7F E7 66 00 00 
269.581093 2 604  Rx d 8 03 7F 27 78 00 00 00 00 
269.655354 2 6ff  Rx d 8 02 3E 80 00 00 00 00 00 
269.689776 2 604  Rx d 8 02 67 02 00 00 00 00 00 
272.304048 2 684  Rx d 8 10 17 2E F1 5C 33 41 2E 
272.307178 2 604  Rx d 8 30 08 14 00 00 00 00 00 
272.310078 2 684  Rx d 8 21 30 2E 30 2E 30 00 00 
272.341240 2 684  Rx d 8 22 00 00 00 00 00 00 00 
272.372304 2 684  Rx d 8 23 00 00 00 00 00 00 00 
272.420965 2 604  Rx d 8 03 7F 2E 78 00 00 00 00 
272.510257 2 604  Rx d 8 03 6E F1 5C 00 00 00 00 
272.664562 2 6ff  Rx d 8 02 3E 80 00 00 00 00 00 
274.031463 2 684  Rx d 8 02 10 01 00 00 00 00 00 
274.042292 2 604  Rx d 8 06 50 01 00 32 00 C8 00 
275.670682 2 6ff  Rx d 8 02 3E 80 00 00 00 00 00 
278.682528 2 6ff  Rx d 8 02 3E 80 00 00 00 00 00 
281.687804 2 6ff  Rx d 8 02 3E 80 00 00 00 00 00 
283.979483 2 684  Rx d 8 02 10 03 00 00 00 00 00 
283.988003 2 604  Rx d 8 06 50 03 00 32 00 C8 00 
284.696226 2 6ff  Rx d 8 02 3E 80 00 00 00 00 00 
284.940233 2 684  Rx d 8 02 85 02 00 00 00 00 00 
284.945943 2 604  Rx d 8 02 C5 02 00 00 00 00 00 
286.108125 2 684  Rx d 8 02 10 41 00 00 00 00 00 
286.116080 2 604  Rx d 8 06 50 41 00 32 00 C8 00 
287.054908 2 684  Rx d 8 02 27 05 00 00 00 00 00 
287.066622 2 604  Rx d 8 10 12 67 05 06 AD FE 8C 
287.067245 2 684  Rx d 8 30 00 00 00 00 00 00 00 
287.071316 2 604  Rx d 8 21 9C 47 FB A6 69 4E 62 
287.071709 2 604  Rx d 8 22 BA 8E 6D 39 C4 00 00 
287.124089 2 684  Rx d 8 10 12 27 06 B6 8C A9 9F 
287.131708 2 604  Rx d 8 30 08 14 00 00 00 00 00 
287.137180 2 684  Rx d 8 21 F8 47 2B 5B 47 00 B4 
287.168309 2 684  Rx d 8 22 AE CC 11 CE 37 00 00 
287.216323 2 604  Rx d 8 03 7F 27 78 00 00 00 00 
287.316077 2 604  Rx d 8 02 67 06 00 00 00 00 00 
287.708301 2 6ff  Rx d 8 02 3E 80 00 00 00 00 00 
289.289202 2 684  Rx d 8 11 03 2E F1 12 FF 24 04 
289.295370 2 604  Rx d 8 30 08 14 00 00 00 00 00 
289.301105 2 684  Rx d 8 21 07 62 02 0E 0B 01 61 
289.332218 2 684  Rx d 8 22 08 11 11 11 12 11 11 
289.363421 2 684  Rx d 8 23 11 11 11 21 11 21 01 
289.394141 2 684  Rx d 8 24 10 11 11 11 11 11 11 
289.424870 2 684  Rx d 8 25 11 31 11 11 11 11 11 
289.455688 2 684  Rx d 8 26 11 11 11 11 11 01 11 
289.486596 2 684  Rx d 8 27 11 21 15 11 22 14 11 
289.517865 2 684  Rx d 8 28 11 11 11 21 11 11 11 
289.522477 2 604  Rx d 8 30 08 14 00 00 00 00 00 
289.533536 2 684  Rx d 8 29 11 11 12 21 21 21 11 
289.564232 2 684  Rx d 8 2A 21 21 12 12 10 12 11 
289.594878 2 684  Rx d 8 2B 11 11 01 01 21 12 11 
289.625516 2 684  Rx d 8 2C 11 11 11 11 11 11 11 
289.656015 2 684  Rx d 8 2D 11 11 11 11 11 21 11 
289.686776 2 684  Rx d 8 2E 11 11 01 11 21 11 11 
289.717652 2 684  Rx d 8 2F 11 11 22 11 12 11 12 
289.748454 2 684  Rx d 8 20 17 0D 00 00 00 00 00 
289.755605 2 604  Rx d 8 30 08 14 00 00 00 00 00 
289.763633 2 684  Rx d 8 21 00 00 00 00 00 00 00 
289.794828 2 684  Rx d 8 22 00 00 00 00 00 00 00 
289.826048 2 684  Rx d 8 23 00 00 00 00 00 00 00 
289.856572 2 684  Rx d 8 24 00 00 00 00 00 00 00 
289.887128 2 684  Rx d 8 25 00 00 00 00 00 00 00 
289.917807 2 684  Rx d 8 26 00 00 00 00 00 00 00 
289.948600 2 684  Rx d 8 27 00 00 00 00 00 00 00 
289.979484 2 684  Rx d 8 28 00 00 00 00 00 00 00 
289.986153 2 604  Rx d 8 30 08 14 00 00 00 00 00 
289.994951 2 684  Rx d 8 29 00 00 00 00 00 00 00 
290.025499 2 684  Rx d 8 2A 00 00 00 00 00 00 00 
290.057284 2 684  Rx d 8 2B 00 00 00 00 00 00 00 
290.088528 2 684  Rx d 8 2C 00 00 00 00 00 00 00 
290.118961 2 684  Rx d 8 2D 00 00 00 00 00 00 00 
290.149796 2 684  Rx d 8 2E 00 00 00 00 00 00 00 
290.181294 2 684  Rx d 8 2F 00 00 00 00 00 00 00 
290.211744 2 684  Rx d 8 20 00 00 00 00 00 00 00 
290.215676 2 604  Rx d 8 30 08 14 00 00 00 00 00 
290.227415 2 684  Rx d 8 21 00 00 00 00 00 00 00 
290.258545 2 684  Rx d 8 22 00 00 00 00 00 00 00 
290.289887 2 684  Rx d 8 23 00 00 00 00 00 00 00 
290.321164 2 684  Rx d 8 24 00 00 00 00 00 00 00 
290.352401 2 684  Rx d 8 25 7C 00 00 00 00 00 00 
290.405788 2 604  Rx d 8 03 7F 2E 78 00 00 00 00 
290.667113 2 604  Rx d 8 03 6E F1 12 00 00 00 00 
290.709523 2 6ff  Rx d 8 02 3E 80 00 00 00 00 00 
293.720435 2 6ff  Rx d 8 02 3E 80 00 00 00 00 00 
294.491368 2 684  Rx d 8 04 31 01 02 01 00 00 00 
294.502402 2 604  Rx d 8 04 71 01 02 01 00 00 00 
295.814728 2 684  Rx d 8 04 14 FF FF FF 00 00 00 
295.829441 2 604  Rx d 8 01 54 00 00 00 00 00 00 
296.704658 2 684  Rx d 8 02 10 01 00 00 00 00 00 
296.720575 2 604  Rx d 8 06 50 01 00 32 00 C8 00 
296.730897 2 6ff  Rx d 8 02 3E 80 00 00 00 00 00 
297.729084 2 684  Rx d 8 02 10 03 00 00 00 00 00 
297.742256 2 604  Rx d 8 06 50 03 00 32 00 C8 00 
298.845432 2 684  Rx d 8 02 85 01 00 00 00 00 00 
298.849946 2 604  Rx d 8 02 C5 01 00 00 00 00 00 
299.732757 2 6ff  Rx d 8 02 3E 80 00 00 00 00 00 
299.782294 2 684  Rx d 8 02 10 01 00 00 00 00 00 
299.791542 2 604  Rx d 8 06 50 01 00 32 00 C8 00 
301.868911 2 684  Rx d 8 02 11 01 00 00 00 00 00 
301.895633 2 604  Rx d 8 02 51 01 00 00 00 00 00 
302.733044 2 6ff  Rx d 8 02 3E 80 00 00 00 00 00 
305.741007 2 6ff  Rx d 8 02 3E 80 00 00 00 00 00 
308.749929 2 6ff  Rx d 8 02 3E 80 00 00 00 00 00 
311.752346 2 6ff  Rx d 8 02 3E 80 00 00 00 00 00 
314.764552 2 6ff  Rx d 8 02 3E 80 00 00 00 00 00 
317.775727 2 6ff  Rx d 8 02 3E 80 00 00 00 00 00 
320.775981 2 6ff  Rx d 8 02 3E 80 00 00 00 00 00 
407.163775 CANFD 2 Tx        FFFFFFFFx                                    0 0 1 1 00     0  0   1000 0 0 0 0 0
407.164037 CANFD 2 Tx        FFFFFFFFx                                    0 0 1 1 00     0  0   1000 0 0 0 0 0
407.164299 CANFD 2 Tx        FFFFFFFFx                                    0 0 1 1 00     0  0   1000 0 0 0 0 0
407.164553 CANFD 2 Tx        FFFFFFFFx                                    0 0 1 1 00     0  0   1000 0 0 0 0 0
407.164816 CANFD 2 Tx        FFFFFFFFx                                    0 0 1 1 00     0  0   1000 0 0 0 0 0
407.165078 CANFD 2 Tx        FFFFFFFFx                                    0 0 1 1 00     0  0   1000 0 0 0 0 0
407.165340 CANFD 2 Tx        FFFFFFFFx                                    0 0 1 1 00     0  0   1000 0 0 0 0 0
407.165594 CANFD 2 Tx        FFFFFFFFx                                    0 0 1 1 00     0  0   1000 0 0 0 0 0
407.165856 CANFD 2 Tx        FFFFFFFFx                                    0 0 1 1 00     0  0   1000 0 0 0 0 0
407.166118 CANFD 2 Tx        FFFFFFFFx                                    0 0 1 1 00     0  0   1000 0 0 0 0 0
407.166380 CANFD 2 Tx        FFFFFFFFx                                    0 0 1 1 00     0  0   1000 0 0 0 0 0
407.166634 CANFD 2 Tx        FFFFFFFFx                                    0 0 1 1 00     0  0   1000 0 0 0 0 0
407.166896 CANFD 2 Tx        FFFFFFFFx                                    0 0 1 1 00     0  0   1000 0 0 0 0 0
407.167158 CANFD 2 Tx        FFFFFFFFx                                    0 0 1 1 00     0  0   1000 0 0 0 0 0
407.167421 CANFD 2 Tx        FFFFFFFFx                                    0 0 1 1 00     0  0   1000 0 0 0 0 0
407.167675 CANFD 2 Tx        FFFFFFFFx                                    0 0 1 1 00     0  0   1000 0 0 0 0 0
407.167969 CANFD 2 Tx        FFFFFFFFx                                    0 0 1 1 00     0  0   1000 0 0 0 0 0
407.168248 CANFD 2 Tx        FFFFFFFFx                                    0 0 1 1 00     0  0   1000 0 0 0 0 0
407.168518 CANFD 2 Tx        FFFFFFFFx                                    0 0 1 1 00     0  0   1000 0 0 0 0 0
407.168797 CANFD 2 Tx        FFFFFFFFx                                    0 0 1 1 00     0  0   1000 0 0 0 0 0
407.169075 CANFD 2 Tx        FFFFFFFFx                                    0 0 1 1 00     0  0   1000 0 0 0 0 0
407.169346 CANFD 2 Tx        FFFFFFFFx                                    0 0 1 1 00     0  0   1000 0 0 0 0 0
407.169624 CANFD 2 Tx        FFFFFFFFx                                    0 0 1 1 00     0  0   1000 0 0 0 0 0
407.169903 CANFD 2 Tx        FFFFFFFFx                                    0 0 1 1 00     0  0   1000 0 0 0 0 0
407.170173 CANFD 2 Tx        FFFFFFFFx                                    0 0 1 1 00     0  0   1000 0 0 0 0 0
407.170452 CANFD 2 Tx        FFFFFFFFx                                    0 0 1 1 00     0  0   1000 0 0 0 0 0
407.170730 CANFD 2 Tx        FFFFFFFFx                                    0 0 1 1 00     0  0   1000 0 0 0 0 0
407.171009 CANFD 2 Tx        FFFFFFFFx                                    0 0 1 1 00     0  0   1000 0 0 0 0 0
407.171279 CANFD 2 Tx        FFFFFFFFx                                    0 0 1 1 00     0  0   1000 0 0 0 0 0
407.171558 CANFD 2 Tx        FFFFFFFFx                                    0 0 1 1 00     0  0   1000 0 0 0 0 0
407.171836 CANFD 2 Tx        FFFFFFFFx                                    0 0 1 1 00     0  0   1000 0 0 0 0 0
407.172106 CANFD 2 Tx        FFFFFFFFx                                    0 0 1 1 00     0  0   1000 0 0 0 0 0
407.172385 CANFD 2 Tx        FFFFFFFFx                                    0 0 1 1 00     0  0   1000 0 0 0 0 0
407.172663 CANFD 2 Tx        FFFFFFFFx                                    0 0 1 1 00     0  0   1000 0 0 0 0 0
