date Thu Jul 30 16:08:22.339 2026
base hex  timestamps absolute
internal events logged
Begin Triggerblock Fri Jan 09 22:27:16.857 2026
 0.000000 Start of measurement
 0.000000 2  6FF             Rx   d 8 02 3E 80 00 00 00 00 00
 0.000238 2  681             Rx   d 8 03 22 F1 90 00 00 00 00
 0.001147 2  601             Rx   d 8 10 14 62 F1 90 52 4C 4E
 0.001655 2  681             Rx   d 8 30 00 00 00 00 00 00 00
 0.002613 2  601             Rx   d 8 21 56 42 4C 39 4B 32 52
 0.024986 2  601             Rx   d 8 22 48 37 36 35 34 34 30
 0.098869 2  684             Rx   d 8 03 22 F1 08 00 00 00 00
 0.144531 2  604             Rx   d 8 03 7F 22 78 00 00 00 00
 0.243548 2  604             Rx   d 8 10 40 62 F1 08 00 34 48
 0.244466 2  684             Rx   d 8 30 00 00 00 00 00 00 00
 0.249643 2  604             Rx   d 8 21 37 36 35 34 34 30 01
 0.250175 2  604             Rx   d 8 22 0E 64 41 55 5F 04 06
 0.250544 2  604             Rx   d 8 23 65 06 06 01 07 65 9A
 0.251019 2  604             Rx   d 8 24 55 00 02 01 00 00 00
 0.251429 2  604             Rx   d 8 25 00 00 00 00 00 00 00
 0.252879 2  604             Rx   d 8 26 00 00 00 00 00 00 00
 0.253223 2  604             Rx   d 8 27 00 00 00 00 00 00 00
 0.253559 2  604             Rx   d 8 28 00 00 00 00 48 D2 9C
 0.253903 2  604             Rx   d 8 29 72 DD 00 00 00 00 00
 0.557597 2  684             Rx   d 8 03 22 F1 11 00 00 00 00
 0.605938 2  604             Rx   d 8 03 7F 22 78 00 00 00 00
 0.829735 2  604             Rx   d 8 11 03 62 F1 11 FF 24 04
 0.830702 2  684             Rx   d 8 30 00 00 00 00 00 00 00
 0.839532 2  604             Rx   d 8 21 07 62 02 0E 0B 01 61
 0.839860 2  604             Rx   d 8 22 08 11 11 11 12 11 11
 0.840352 2  604             Rx   d 8 23 11 11 11 21 11 21 11
 0.840696 2  604             Rx   d 8 24 11 11 11 11 11 11 11
 0.841056 2  604             Rx   d 8 25 11 31 11 11 11 11 11
 0.841621 2  604             Rx   d 8 26 11 11 11 11 11 11 11
 0.842064 2  604             Rx   d 8 27 12 21 15 11 22 14 01
 0.842432 2  604             Rx   d 8 28 11 11 11 21 11 11 11
 0.842760 2  604             Rx   d 8 29 11 11 12 21 31 21 11
 0.843088 2  604             Rx   d 8 2A 21 21 12 12 10 12 11
 0.843612 2  604             Rx   d 8 2B 11 11 01 01 21 12 11
 0.843891 2  604             Rx   d 8 2C 11 11 11 11 11 11 11
 0.844374 2  604             Rx   d 8 2D 11 11 11 11 11 21 11
 0.844849 2  604             Rx   d 8 2E 11 11 01 11 21 11 11
 0.845472 2  604             Rx   d 8 2F 11 11 22 11 12 11 11
 0.845840 2  604             Rx   d 8 20 17 01 00 00 00 00 00
 0.846660 2  604             Rx   d 8 21 00 00 00 00 00 00 00
 0.847028 2  604             Rx   d 8 22 00 00 00 00 00 00 00
 0.847364 2  604             Rx   d 8 23 00 00 00 00 00 00 00
 0.848626 2  604             Rx   d 8 24 00 00 00 00 00 00 00
 0.849551 2  604             Rx   d 8 25 00 00 00 00 00 00 00
 0.849945 2  604             Rx   d 8 26 00 00 00 00 00 00 00
 0.850346 2  604             Rx   d 8 27 00 00 00 00 00 00 00
 0.850698 2  604             Rx   d 8 28 00 00 00 00 00 00 00
 0.851059 2  604             Rx   d 8 29 00 00 00 00 00 00 00
 0.853098 2  604             Rx   d 8 2A 00 00 00 00 00 00 00
 0.853893 2  604             Rx   d 8 2B 00 00 00 00 00 00 00
 0.854704 2  604             Rx   d 8 2C 00 00 00 00 00 00 00
 0.855097 2  604             Rx   d 8 2D 00 00 00 00 00 00 00
 0.855843 2  604             Rx   d 8 2E 00 00 00 00 00 00 00
 0.857465 2  604             Rx   d 8 2F 00 00 00 00 00 00 00
 0.860111 2  604             Rx   d 8 20 00 00 00 00 00 00 00
 0.860651 2  604             Rx   d 8 21 00 00 00 00 00 00 00
 0.861381 2  604             Rx   d 8 22 00 00 00 00 00 00 00
 0.862822 2  604             Rx   d 8 23 00 00 00 00 00 00 00
 0.863175 2  604             Rx   d 8 24 00 00 00 00 00 00 00
 0.863658 2  604             Rx   d 8 25 12 00 00 00 00 00 00
 1.571234 2  684             Rx   d 8 03 22 F1 12 00 00 00 00
 1.625137 2  604             Rx   d 8 03 7F 22 78 00 00 00 00
 1.852867 2  604             Rx   d 8 11 03 62 F1 12 FF 24 04
 1.853743 2  684             Rx   d 8 30 00 00 00 00 00 00 00
 1.860682 2  604             Rx   d 8 21 07 60 02 01 31 01 01
 1.862353 2  604             Rx   d 8 22 08 11 11 11 02 11 11
 1.862820 2  604             Rx   d 8 23 11 11 11 21 11 21 21
 1.863532 2  604             Rx   d 8 24 12 11 11 11 11 11 11
 1.864122 2  604             Rx   d 8 25 11 31 11 11 11 11 11
 1.864483 2  604             Rx   d 8 26 11 11 11 11 11 01 11
 1.864958 2  604             Rx   d 8 27 11 21 15 11 22 14 01
 1.865425 2  604             Rx   d 8 28 11 11 11 21 11 11 11
 1.865753 2  604             Rx   d 8 29 11 11 12 21 20 21 11
 1.866080 2  604             Rx   d 8 2A 11 21 12 12 10 12 11
 1.866555 2  604             Rx   d 8 2B 11 11 01 01 21 11 11
 1.867252 2  604             Rx   d 8 2C 11 11 11 11 11 11 11
 1.868497 2  604             Rx   d 8 2D 11 11 11 11 11 21 11
 1.869447 2  604             Rx   d 8 2E 21 11 01 11 21 11 11
 1.869832 2  604             Rx   d 8 2F 11 11 22 11 12 11 11
 1.870258 2  604             Rx   d 8 20 17 01 00 00 00 00 00
 1.870700 2  604             Rx   d 8 21 00 00 00 00 00 00 00
 1.871446 2  604             Rx   d 8 22 00 00 00 00 00 00 00
 1.872658 2  604             Rx   d 8 23 00 00 00 00 00 00 00
 1.873002 2  604             Rx   d 8 24 00 00 00 00 00 00 00
 1.873363 2  604             Rx   d 8 25 00 00 00 00 00 00 00
 1.873764 2  604             Rx   d 8 26 00 00 00 00 00 00 00
 1.874256 2  604             Rx   d 8 27 00 00 00 00 00 00 00
 1.874723 2  604             Rx   d 8 28 00 00 00 00 00 00 00
 1.875067 2  604             Rx   d 8 29 00 00 00 00 00 00 00
 1.875558 2  604             Rx   d 8 2A 00 00 00 00 00 00 00
 1.876296 2  604             Rx   d 8 2B 00 00 00 00 00 00 00
 1.877041 2  604             Rx   d 8 2C 00 00 00 00 00 00 00
 1.877385 2  604             Rx   d 8 2D 00 00 00 00 00 00 00
 1.879777 2  604             Rx   d 8 2E 00 00 00 00 00 00 00
 1.880269 2  604             Rx   d 8 2F 00 00 00 00 00 00 00
 1.880768 2  604             Rx   d 8 20 00 00 00 00 00 00 00
 1.881989 2  604             Rx   d 8 21 00 00 00 00 00 00 00
 1.882481 2  604             Rx   d 8 22 00 00 00 00 00 00 00
 1.882972 2  604             Rx   d 8 23 00 00 00 00 00 00 00
 1.883341 2  604             Rx   d 8 24 00 00 00 00 00 00 00
 1.883701 2  604             Rx   d 8 25 17 00 00 00 00 00 00
 2.620023 2  684             Rx   d 8 03 22 F1 5C 00 00 00 00
 2.668519 2  604             Rx   d 8 03 7F 22 78 00 00 00 00
 2.753397 2  604             Rx   d 8 10 17 62 F1 5C 33 41 2E
 2.754077 2  684             Rx   d 8 30 00 00 00 00 00 00 00
 2.761048 2  604             Rx   d 8 21 30 2E 30 2E 30 00 00
 2.761408 2  604             Rx   d 8 22 00 00 00 00 00 00 00
 2.762375 2  604             Rx   d 8 23 00 00 00 00 00 00 00
 2.977989 2  684             Rx   d 8 03 22 F1 90 00 00 00 00
 3.006775 2  6FF             Rx   d 8 02 3E 80 00 00 00 00 00
 3.023421 2  604             Rx   d 8 03 7F 22 78 00 00 00 00
 3.104276 2  604             Rx   d 8 10 14 62 F1 90 52 4C 4E
 3.104752 2  684             Rx   d 8 30 00 00 00 00 00 00 00
 3.110994 2  604             Rx   d 8 21 56 42 4C 39 4B 38 52
 3.111338 2  604             Rx   d 8 22 48 37 32 32 35 32 37
 3.317957 2  682             Rx   d 8 03 22 F1 11 00 00 00 00
 3.358941 2  602             Rx   d 8 03 7F 22 78 CC CC CC CC
 3.448938 2  602             Rx   d 8 11 03 62 F1 11 FF 24 04
 3.449463 2  682             Rx   d 8 30 00 00 00 00 00 00 00
 3.449725 2  602             Rx   d 8 21 07 62 02 0E 0B 01 61
 3.449987 2  602             Rx   d 8 22 08 11 11 11 12 11 11
 3.450241 2  602             Rx   d 8 23 11 11 11 21 11 21 11
 3.450503 2  602             Rx   d 8 24 11 11 11 11 11 11 11
 3.450757 2  602             Rx   d 8 25 11 31 11 11 11 11 11
 3.451011 2  602             Rx   d 8 26 11 11 11 11 11 11 11
 3.451265 2  602             Rx   d 8 27 12 21 15 11 22 14 01
 3.451519 2  602             Rx   d 8 28 11 11 11 21 11 11 11
 3.451773 2  602             Rx   d 8 29 11 11 12 21 31 21 11
 3.452019 2  602             Rx   d 8 2A 21 21 12 12 10 12 11
 3.452273 2  602             Rx   d 8 2B 11 11 01 01 21 12 11
 3.452535 2  602             Rx   d 8 2C 11 11 11 11 11 11 11
 3.452789 2  602             Rx   d 8 2D 11 11 11 11 11 21 11
 3.453051 2  602             Rx   d 8 2E 11 11 01 11 21 11 11
 3.453305 2  602             Rx   d 8 2F 11 11 22 11 12 11 11
 3.453583 2  602             Rx   d 8 20 17 01 00 00 00 00 00
 3.453854 2  602             Rx   d 8 21 00 00 00 00 00 00 00
 3.454132 2  602             Rx   d 8 22 00 00 00 00 00 00 00
 3.454411 2  602             Rx   d 8 23 00 00 00 00 00 00 00
 3.454689 2  602             Rx   d 8 24 00 00 00 00 00 00 00
 3.454960 2  602             Rx   d 8 25 00 00 00 00 00 00 00
 3.455238 2  602             Rx   d 8 26 00 00 00 00 00 00 00
 3.455517 2  602             Rx   d 8 27 00 00 00 00 00 00 00
 3.455795 2  602             Rx   d 8 28 00 00 00 00 00 00 00
 3.456065 2  602             Rx   d 8 29 00 00 00 00 00 00 00
 3.456336 2  602             Rx   d 8 2A 00 00 00 00 00 00 00
 3.456647 2  602             Rx   d 8 2B 00 00 00 00 00 00 00
 3.456917 2  602             Rx   d 8 2C 00 00 00 00 00 00 00
 3.457188 2  602             Rx   d 8 2D 00 00 00 00 00 00 00
 3.457466 2  602             Rx   d 8 2E 00 00 00 00 00 00 00
 3.457737 2  602             Rx   d 8 2F 00 00 00 00 00 00 00
 3.458007 2  602             Rx   d 8 20 00 00 00 00 00 00 00
 3.458286 2  602             Rx   d 8 21 00 00 00 00 00 00 00
 3.458556 2  602             Rx   d 8 22 00 00 00 00 00 00 00
 3.458834 2  602             Rx   d 8 23 00 00 00 00 00 00 00
 3.459113 2  602             Rx   d 8 24 00 00 00 00 00 00 00
 3.459367 2  602             Rx   d 8 25 12 CC CC CC CC CC CC
 4.178698 2  682             Rx   d 8 03 22 F1 12 00 00 00 00
 4.218921 2  602             Rx   d 8 03 7F 22 78 CC CC CC CC
 4.308926 2  602             Rx   d 8 11 03 62 F1 12 FF 24 04
 4.309721 2  682             Rx   d 8 30 00 00 00 00 00 00 00
 4.309991 2  602             Rx   d 8 21 07 62 02 0E 0B 01 61
 4.310245 2  602             Rx   d 8 22 08 11 11 11 12 11 11
 4.310499 2  602             Rx   d 8 23 11 11 11 21 11 21 01
 4.310753 2  602             Rx   d 8 24 10 11 11 11 11 11 11
 4.311007 2  602             Rx   d 8 25 11 31 11 11 11 11 11
 4.311261 2  602             Rx   d 8 26 11 11 11 11 11 01 11
 4.311515 2  602             Rx   d 8 27 11 21 15 11 22 14 11
 4.311769 2  602             Rx   d 8 28 11 11 11 21 11 11 11
 4.312023 2  602             Rx   d 8 29 11 11 12 21 21 21 11
 4.312269 2  602             Rx   d 8 2A 21 21 12 12 10 12 11
 4.312523 2  602             Rx   d 8 2B 11 11 01 01 21 12 11
 4.312777 2  602             Rx   d 8 2C 11 11 11 11 11 11 11
 4.313031 2  602             Rx   d 8 2D 11 11 11 11 11 21 11
 4.313293 2  602             Rx   d 8 2E 11 11 01 11 21 11 11
 4.313547 2  602             Rx   d 8 2F 11 11 22 11 12 11 12
 4.313817 2  602             Rx   d 8 20 17 0D 00 00 00 00 00
 4.314096 2  602             Rx   d 8 21 00 00 00 00 00 00 00
 4.314374 2  602             Rx   d 8 22 00 00 00 00 00 00 00
 4.314653 2  602             Rx   d 8 23 00 00 00 00 00 00 00
 4.314931 2  602             Rx   d 8 24 00 00 00 00 00 00 00
 4.315210 2  602             Rx   d 8 25 00 00 00 00 00 00 00
 4.315480 2  602             Rx   d 8 26 00 00 00 00 00 00 00
 4.315759 2  602             Rx   d 8 27 00 00 00 00 00 00 00
 4.316029 2  602             Rx   d 8 28 00 00 00 00 00 00 00
 4.316307 2  602             Rx   d 8 29 00 00 00 00 00 00 00
 4.316586 2  602             Rx   d 8 2A 00 00 00 00 00 00 00
 4.316864 2  602             Rx   d 8 2B 00 00 00 00 00 00 00
 4.317135 2  602             Rx   d 8 2C 00 00 00 00 00 00 00
 4.317405 2  602             Rx   d 8 2D 00 00 00 00 00 00 00
 4.317700 2  602             Rx   d 8 2E 00 00 00 00 00 00 00
 4.317979 2  602             Rx   d 8 2F 00 00 00 00 00 00 00
 4.318257 2  602             Rx   d 8 20 00 00 00 00 00 00 00
 4.318536 2  602             Rx   d 8 21 00 00 00 00 00 00 00
 4.318814 2  602             Rx   d 8 22 00 00 00 00 00 00 00
 4.319084 2  602             Rx   d 8 23 00 00 00 00 00 00 00
 4.319363 2  602             Rx   d 8 24 00 00 00 00 00 00 00
 4.319642 2  602             Rx   d 8 25 7C CC CC CC CC CC CC
 5.054874 2  681             Rx   d 8 03 22 F1 22 00 00 00 00
 5.056586 2  601             Rx   d 8 05 62 F1 22 29 AE 00 00
 5.192679 2  6BD             Rx   d 8 03 22 F1 94 00 00 00 00
 5.200380 2  63D             Rx   d 8 10 0D 62 F1 94 56 46 32
 5.201043 2  6BD             Rx   d 8 30 00 00 00 00 00 00 00
 5.202395 2  63D             Rx   d 8 21 35 30 38 30 34 2E 31
 5.380719 2  681             Rx   d 8 03 22 F1 90 00 00 00 00
 5.381538 2  601             Rx   d 8 10 14 62 F1 90 52 4C 4E
 5.382070 2  681             Rx   d 8 30 00 00 00 00 00 00 00
 5.382881 2  601             Rx   d 8 21 56 42 4C 39 4B 32 52
 5.406630 2  601             Rx   d 8 22 48 37 36 35 34 34 30
 5.594898 2  688             Rx   d 8 03 22 FA 1B 00 00 00 00
 5.602181 2  608             Rx   d 8 10 08 62 FA 1B 0C 01 00
 5.602623 2  688             Rx   d 8 30 00 00 00 00 00 00 00
 5.603525 2  608             Rx   d 8 21 00 00 00 00 00 00 00
 5.791310 2  6AC             Rx   d 8 03 22 F1 94 00 00 00 00
 5.793358 2  62C             Rx   d 8 10 0D 62 F1 94 56 46 32
 5.793964 2  6AC             Rx   d 8 30 00 00 00 00 00 00 00
 5.799813 2  62C             Rx   d 8 21 35 30 35 32 37 2E 30
 5.995413 2  6AC             Rx   d 8 03 22 F1 90 00 00 00 00
 6.012535 2  62C             Rx   d 8 10 14 62 F1 90 52 4C 4E
 6.013051 2  6AC             Rx   d 8 30 00 00 00 00 00 00 00
 6.014435 2  62C             Rx   d 8 21 56 42 4C 39 4B 32 52
 6.017065 2  62C             Rx   d 8 22 48 37 34 34 32 36 34
 6.020956 2  6FF             Rx   d 8 02 3E 80 00 00 00 00 00
 6.237946 2  693             Rx   d 8 03 22 F1 90 00 00 00 00
 6.251094 2  613             Rx   d 8 10 14 62 F1 90 52 4C 4E
 6.251594 2  693             Rx   d 8 30 00 00 00 00 00 00 00
 6.263644 2  613             Rx   d 8 21 56 42 4C 39 4B 35 52
 6.265921 2  613             Rx   d 8 22 48 37 31 36 36 36 38
 81.727717 2  681             Rx   d 8 03 22 F1 90 00 00 00 00
 81.728537 2  601             Rx   d 8 10 14 62 F1 90 52 4C 4E
 81.729003 2  681             Rx   d 8 30 08 14 00 00 00 00 00
 81.730019 2  601             Rx   d 8 21 56 42 4C 39 4B 32 52
 81.753096 2  601             Rx   d 8 22 48 37 36 35 34 34 30
 82.537865 2  681             Rx   d 8 02 3E 00 00 00 00 00 00
 82.538717 2  601             Rx   d 8 02 7E 00 00 00 00 00 00
 82.579341 2  681             Rx   d 8 03 22 F1 23 00 00 00 00
 82.580824 2  601             Rx   d 8 04 62 F1 23 02 00 00 00
 82.760540 2  681             Rx   d 8 03 22 F1 23 00 00 00 00
 82.763710 2  601             Rx   d 8 04 62 F1 23 02 00 00 00
 82.889679 2  681             Rx   d 8 03 22 F1 23 00 00 00 00
 82.890817 2  601             Rx   d 8 04 62 F1 23 02 00 00 00
 83.019407 2  681             Rx   d 8 03 22 F1 23 00 00 00 00
 83.020292 2  601             Rx   d 8 04 62 F1 23 02 00 00 00
 83.152159 2  681             Rx   d 8 03 22 F1 23 00 00 00 00
 83.153437 2  601             Rx   d 8 04 62 F1 23 02 00 00 00
 83.278913 2  681             Rx   d 8 03 22 F1 23 00 00 00 00
 83.279978 2  601             Rx   d 8 04 62 F1 23 02 00 00 00
 83.408650 2  681             Rx   d 8 03 22 F1 23 00 00 00 00
 83.409813 2  601             Rx   d 8 04 62 F1 23 02 00 00 00
 83.547201 2  681             Rx   d 8 03 22 F1 23 00 00 00 00
 83.548021 2  601             Rx   d 8 04 62 F1 23 02 00 00 00
 83.700588 2  681             Rx   d 8 03 22 F1 23 00 00 00 00
 83.701416 2  601             Rx   d 8 04 62 F1 23 02 00 00 00
 83.828982 2  681             Rx   d 8 03 22 F1 23 00 00 00 00
 83.830014 2  601             Rx   d 8 04 62 F1 23 02 00 00 00
 83.961102 2  681             Rx   d 8 03 22 F1 23 00 00 00 00
 83.964150 2  601             Rx   d 8 04 62 F1 23 02 00 00 00
 84.088406 2  681             Rx   d 8 03 22 F1 23 00 00 00 00
 84.089635 2  601             Rx   d 8 04 62 F1 23 02 00 00 00
 84.223328 2  681             Rx   d 8 03 22 F1 23 00 00 00 00
 84.224147 2  601             Rx   d 8 04 62 F1 23 02 00 00 00
 84.348527 2  681             Rx   d 8 03 22 F1 23 00 00 00 00
 84.349559 2  601             Rx   d 8 04 62 F1 23 02 00 00 00
 84.480360 2  681             Rx   d 8 03 22 F1 23 00 00 00 00
 84.481171 2  601             Rx   d 8 04 62 F1 23 02 00 00 00
 84.609393 2  681             Rx   d 8 03 22 F1 23 00 00 00 00
 84.610253 2  601             Rx   d 8 04 62 F1 23 02 00 00 00
 84.752163 2  681             Rx   d 8 03 22 F1 23 00 00 00 00
 84.753187 2  601             Rx   d 8 04 62 F1 23 02 00 00 00
 92.113519 2  6FF             Rx   d 8 02 3E 80 AA AA AA AA AA
 92.234244 2  6FF             Rx   d 8 02 10 01 AA AA AA AA AA
 92.237291 2  675             Rx   d 8 06 50 01 00 32 00 C8 55
 92.237537 2  601             Rx   d 8 06 50 01 00 32 00 C8 00
 92.237963 2  628             Rx   d 8 06 50 01 00 32 00 C8 00
 92.238217 2  629             Rx   d 8 06 50 01 00 32 00 C8 00
 92.238700 2  610             Rx   d 8 06 50 01 00 32 00 C8 00
 92.239610 2  602             Rx   d 8 06 50 01 00 32 00 C8 CC
 92.240691 2  608             Rx   d 8 06 50 01 00 32 00 C8 00
 92.240953 2  62C             Rx   d 8 06 50 01 00 32 00 C8 00
 92.241781 2  63D             Rx   d 8 06 50 01 00 32 00 C8 00
 92.243378 2  62A             Rx   d 8 06 50 01 00 32 00 C8 00
 92.252930 2  604             Rx   d 8 06 50 01 00 32 00 C8 00
 92.260663 2  61B             Rx   d 8 06 50 01 00 32 00 C8 00
 92.701999 2  681             Rx   d 8 02 10 03 AA AA AA AA AA
 92.702925 2  601             Rx   d 8 06 50 03 00 32 00 C8 00
 92.913713 2  681             Rx   d 8 02 27 03 AA AA AA AA AA
 92.914811 2  601             Rx   d 8 10 12 67 03 15 E8 7D 71
 92.915433 2  681             Rx   d 8 30 00 00 AA AA AA AA AA
 92.917457 2  601             Rx   d 8 21 5F E1 8A 23 7B 65 5A
 92.940829 2  601             Rx   d 8 22 31 63 5F B1 31 00 00
 92.964659 2  681             Rx   d 8 10 12 27 04 ED 88 CF E0
 92.967682 2  601             Rx   d 8 30 01 14 00 00 00 00 00
 92.988187 2  681             Rx   d 8 21 54 DB 01 85 AC B3 68
 92.989219 2  601             Rx   d 8 30 01 14 00 00 00 00 00
 93.010010 2  681             Rx   d 8 22 9D 16 08 D8 6A AA AA
 93.011321 2  601             Rx   d 8 02 67 04 00 00 00 00 00
 93.197550 2  681             Rx   d 8 03 22 F1 90 AA AA AA AA
 93.198533 2  601             Rx   d 8 10 14 62 F1 90 52 4C 4E
 93.199204 2  681             Rx   d 8 30 00 00 AA AA AA AA AA
 93.200007 2  601             Rx   d 8 21 56 42 4C 39 4B 32 52
 93.223035 2  601             Rx   d 8 22 48 37 36 35 34 34 30
 110.535737 2  681             Rx   d 8 02 10 03 AA AA AA AA AA
 110.536925 2  601             Rx   d 8 06 50 03 00 32 00 C8 00
 110.613823 2  681             Rx   d 8 02 27 03 AA AA AA AA AA
 110.615183 2  601             Rx   d 8 10 12 67 03 04 C1 B0 6A
 110.615839 2  681             Rx   d 8 30 00 00 AA AA AA AA AA
 110.617158 2  601             Rx   d 8 21 B7 C6 74 A8 1C EC 53
 110.641095 2  601             Rx   d 8 22 C9 7A 9C DC 14 00 00
 110.644535 2  681             Rx   d 8 10 12 27 04 75 81 FF 5B
 110.647042 2  601             Rx   d 8 30 01 14 00 00 00 00 00
 110.667547 2  681             Rx   d 8 21 D8 61 5C 80 B7 CB 04
 110.670021 2  601             Rx   d 8 30 01 14 00 00 00 00 00
 110.690476 2  681             Rx   d 8 22 85 69 6C A6 26 AA AA
 110.691729 2  601             Rx   d 8 02 67 04 00 00 00 00 00
 110.779449 2  681             Rx   d 8 04 31 01 02 07 AA AA AA
 110.781227 2  601             Rx   d 8 04 71 01 02 07 00 00 00
 112.310305 2  681             Rx   d 8 04 31 03 02 07 AA AA AA
 112.311132 2  601             Rx   d 8 05 71 03 02 07 01 00 00
 112.346128 2  681             Rx   d 8 03 22 FD 02 AA AA AA AA
 112.348332 2  601             Rx   d 8 04 62 FD 02 00 00 00 00
 114.860179 2  681             Rx   d 8 02 3E 00 AA AA AA AA AA
 114.861359 2  601             Rx   d 8 02 7E 00 00 00 00 00 00
 117.312053 2  681             Rx   d 8 02 3E 00 AA AA AA AA AA
 117.313561 2  601             Rx   d 8 02 7E 00 00 00 00 00 00
 119.764246 2  681             Rx   d 8 02 3E 00 AA AA AA AA AA
 119.766974 2  601             Rx   d 8 02 7E 00 00 00 00 00 00
 122.217669 2  681             Rx   d 8 02 3E 00 AA AA AA AA AA
 122.218496 2  601             Rx   d 8 02 7E 00 00 00 00 00 00
 124.669190 2  681             Rx   d 8 02 3E 00 AA AA AA AA AA
 124.670026 2  601             Rx   d 8 02 7E 00 00 00 00 00 00
 127.121047 2  681             Rx   d 8 02 3E 00 AA AA AA AA AA
 127.121891 2  601             Rx   d 8 02 7E 00 00 00 00 00 00
 129.572577 2  681             Rx   d 8 02 3E 00 AA AA AA AA AA
 129.577918 2  601             Rx   d 8 02 7E 00 00 00 00 00 00
 132.028629 2  681             Rx   d 8 02 3E 00 AA AA AA AA AA
 132.029465 2  601             Rx   d 8 02 7E 00 00 00 00 00 00
 134.480159 2  681             Rx   d 8 02 3E 00 AA AA AA AA AA
 134.481215 2  601             Rx   d 8 02 7E 00 00 00 00 00 00
 134.654173 2  681             Rx   d 8 04 31 01 02 06 AA AA AA
 134.658294 2  601             Rx   d 8 04 71 01 02 06 00 00 00
 134.665175 2  681             Rx   d 8 04 31 03 02 06 AA AA AA
 134.706979 2  601             Rx   d 8 03 7F 31 78 00 00 00 00
 136.209260 2  601             Rx   d 8 03 7F 31 78 00 00 00 00
 137.711018 2  601             Rx   d 8 03 7F 31 78 00 00 00 00
 138.666901 2  601             Rx   d 8 05 71 03 02 06 01 00 00
 138.688029 2  681             Rx   d 8 03 22 FD 02 AA AA AA AA
 138.688848 2  601             Rx   d 8 04 62 FD 02 01 00 00 00
 141.163700 2  681             Rx   d 8 02 3E 00 AA AA AA AA AA
 141.166641 2  601             Rx   d 8 02 7E 00 00 00 00 00 00
 143.617728 2  681             Rx   d 8 02 3E 00 AA AA AA AA AA
 143.618564 2  601             Rx   d 8 02 7E 00 00 00 00 00 00
 145.107304 2  681             Rx   d 8 04 31 01 02 06 AA AA AA
 145.108304 2  601             Rx   d 8 04 71 01 02 06 00 00 00
 145.119797 2  681             Rx   d 8 04 31 03 02 06 AA AA AA
 145.161052 2  601             Rx   d 8 03 7F 31 78 00 00 00 00
 146.663268 2  601             Rx   d 8 03 7F 31 78 00 00 00 00
 148.166713 2  601             Rx   d 8 03 7F 31 78 00 00 00 00
 148.469088 2  601             Rx   d 8 05 71 03 02 06 02 00 00
 151.494779 2  681             Rx   d 8 03 22 FD 02 AA AA AA AA
 151.496843 2  601             Rx   d 8 04 62 FD 02 01 00 00 00
 151.509950 2  681             Rx   d 8 04 31 02 02 06 AA AA AA
 151.510802 2  601             Rx   d 8 04 71 02 02 06 00 00 00
 151.515931 2  681             Rx   d 8 02 10 01 AA AA AA AA AA
 151.516807 2  601             Rx   d 8 06 50 01 00 32 00 C8 00
 151.549428 2  681             Rx   d 8 02 11 01 AA AA AA AA AA
 151.550263 2  601             Rx   d 8 02 51 01 00 00 00 00 00
 153.565921 2  681             Rx   d 8 03 22 FD 02 AA AA AA AA
 153.568321 2  601             Rx   d 8 04 62 FD 02 01 00 00 00
 153.701384 2  681             Rx   d 8 02 10 03 AA AA AA AA AA
 153.702408 2  601             Rx   d 8 06 50 03 00 32 00 C8 00
 153.710854 2  681             Rx   d 8 03 22 F1 23 AA AA AA AA
 153.711673 2  601             Rx   d 8 04 62 F1 23 02 00 00 00
 153.799475 2  681             Rx   d 8 02 10 03 AA AA AA AA AA
 153.800319 2  601             Rx   d 8 06 50 03 00 32 00 C8 00
 153.818595 2  681             Rx   d 8 02 27 03 AA AA AA AA AA
 153.819431 2  601             Rx   d 8 10 12 67 03 EA 44 8A 59
 153.820045 2  681             Rx   d 8 30 00 00 AA AA AA AA AA
 153.820848 2  601             Rx   d 8 21 E8 F5 AA 4E 07 56 18
 153.843417 2  601             Rx   d 8 22 75 A7 46 80 31 00 00
 153.848103 2  681             Rx   d 8 10 12 27 04 F4 FA 7D 6F
 153.848938 2  601             Rx   d 8 30 01 14 00 00 00 00 00
 153.869509 2  681             Rx   d 8 21 CD 01 67 80 3A 1E 8D
 153.870393 2  601             Rx   d 8 30 01 14 00 00 00 00 00
 153.890849 2  681             Rx   d 8 22 2E 67 CD 80 5E AA AA
 153.892110 2  601             Rx   d 8 02 67 04 00 00 00 00 00
 153.907159 2  681             Rx   d 8 03 22 5C 02 AA AA AA AA
 153.908863 2  601             Rx   d 8 04 62 5C 02 40 00 00 00
 153.919644 2  681             Rx   d 8 10 14 2E 5C 00 02 AB 48
 153.920479 2  601             Rx   d 8 30 01 14 00 00 00 00 00
 153.941017 2  681             Rx   d 8 21 C8 41 7A A2 05 2C C1
 153.941852 2  601             Rx   d 8 30 01 14 00 00 00 00 00
 153.962324 2  681             Rx   d 8 22 4F FD F9 7B 50 12 F8
 154.003325 2  601             Rx   d 8 03 7F 2E 78 00 00 00 00
 154.056851 2  601             Rx   d 8 03 6E 5C 00 00 00 00 00
 154.063069 2  681             Rx   d 8 03 22 5C 03 AA AA AA AA
 154.064052 2  601             Rx   d 8 10 13 62 5C 03 AB 48 C8
 154.064675 2  681             Rx   d 8 30 00 00 AA AA AA AA AA
 154.069107 2  601             Rx   d 8 21 41 7A A2 05 2C C1 4F
 154.091266 2  601             Rx   d 8 22 FD F9 7B 50 12 F8 00
 154.104619 2  681             Rx   d 8 10 14 2E 5C 00 21 00 00
 154.108502 2  601             Rx   d 8 30 01 14 00 00 00 00 00
 154.129047 2  681             Rx   d 8 21 00 00 00 00 00 00 00
 154.129899 2  601             Rx   d 8 30 01 14 00 00 00 00 00
 154.150388 2  681             Rx   d 8 22 00 00 00 00 00 00 00
 154.191266 2  601             Rx   d 8 03 7F 2E 78 00 00 00 00
 154.227376 2  601             Rx   d 8 03 6E 5C 00 00 00 00 00
 154.237206 2  681             Rx   d 8 03 22 5C 02 AA AA AA AA
 154.238026 2  601             Rx   d 8 04 62 5C 02 40 00 00 00
 154.248053 2  681             Rx   d 8 02 10 01 AA AA AA AA AA
 154.248880 2  601             Rx   d 8 06 50 01 00 32 00 C8 00
 154.311098 2  6AC             Rx   d 8 02 10 03 AA AA AA AA AA
 154.319749 2  62C             Rx   d 8 06 50 03 00 32 00 C8 00
 154.330087 2  6AC             Rx   d 8 02 27 03 AA AA AA AA AA
 154.339721 2  62C             Rx   d 8 10 12 67 03 B1 E7 BB 8F
 154.340344 2  6AC             Rx   d 8 30 00 00 AA AA AA AA AA
 154.341827 2  62C             Rx   d 8 21 9B AB A5 D0 F1 5B 1A
 154.344210 2  62C             Rx   d 8 22 CC AD 03 DE 9B 00 00
 154.350625 2  6AC             Rx   d 8 10 12 27 04 2E 66 F4 29
 154.352484 2  62C             Rx   d 8 30 08 14 00 00 00 00 00
 154.373054 2  6AC             Rx   d 8 21 80 02 32 C2 DE ED 6E
 154.393461 2  6AC             Rx   d 8 22 02 C7 5A 33 BC AA AA
 154.401759 2  62C             Rx   d 8 02 67 04 00 00 00 00 00
 154.418938 2  6AC             Rx   d 8 03 22 C0 00 AA AA AA AA
 154.429751 2  62C             Rx   d 8 04 62 C0 00 40 00 00 00
 154.437435 2  6AC             Rx   d 8 10 14 2E C0 05 03 AB 48
 154.439745 2  62C             Rx   d 8 30 08 14 00 00 00 00 00
 154.460258 2  6AC             Rx   d 8 21 C8 41 7A A2 05 2C C1
 154.480648 2  6AC             Rx   d 8 22 4F FD F9 7B 50 12 F8
 154.493731 2  62C             Rx   d 8 03 6E C0 05 00 00 00 00
 154.499473 2  6AC             Rx   d 8 03 22 C0 00 AA AA AA AA
 154.513228 2  62C             Rx   d 8 04 62 C0 00 40 00 00 00
 154.519495 2  6AC             Rx   d 8 04 14 FF FF FF AA AA AA
 154.560373 2  62C             Rx   d 8 03 7F 14 78 00 00 00 00
 154.789757 2  62C             Rx   d 8 01 54 00 00 00 00 00 00
 154.901463 2  684             Rx   d 8 02 10 03 AA AA AA AA AA
 154.918502 2  604             Rx   d 8 06 50 03 00 32 00 C8 00
 154.939736 2  684             Rx   d 8 02 27 01 AA AA AA AA AA
 154.954162 2  604             Rx   d 8 10 12 67 01 F9 71 31 64
 154.954785 2  684             Rx   d 8 30 00 00 AA AA AA AA AA
 154.961125 2  604             Rx   d 8 21 CF 21 20 88 F1 6B C3
 154.961543 2  604             Rx   d 8 22 06 25 85 F2 D3 00 00
 154.964959 2  684             Rx   d 8 10 12 27 02 C2 62 AA 90
 154.971226 2  604             Rx   d 8 30 08 14 00 00 00 00 00
 154.991739 2  684             Rx   d 8 21 0A 63 45 95 EC 52 EE
 155.012112 2  684             Rx   d 8 22 4D 17 1E 0C 43 AA AA
 155.068907 2  604             Rx   d 8 03 7F 27 78 00 00 00 00
 155.153637 2  604             Rx   d 8 02 67 02 00 00 00 00 00
 155.180294 2  684             Rx   d 8 05 31 01 02 13 01 AA AA
 155.218125 2  604             Rx   d 8 05 71 01 02 13 00 00 00
 187.240718 2  684             Rx   d 8 02 10 03 AA AA AA AA AA
 187.247108 2  604             Rx   d 8 06 50 03 00 32 00 C8 00
 187.258872 2  684             Rx   d 8 02 27 01 AA AA AA AA AA
 187.268276 2  604             Rx   d 8 10 12 67 01 EB C6 E4 45
 187.268940 2  684             Rx   d 8 30 00 00 AA AA AA AA AA
 187.272888 2  604             Rx   d 8 21 4D D9 2E C1 37 E3 39
 187.273363 2  604             Rx   d 8 22 88 74 E7 88 95 00 00
 187.276665 2  684             Rx   d 8 10 12 27 02 2F 4E DE 4D
 187.281514 2  604             Rx   d 8 30 08 14 00 00 00 00 00
 187.302027 2  684             Rx   d 8 21 C0 39 5C 3C 20 F8 B2
 187.322401 2  684             Rx   d 8 22 37 70 D4 6F 49 AA AA
 187.382743 2  604             Rx   d 8 03 7F 27 78 00 00 00 00
 187.477713 2  604             Rx   d 8 02 67 02 00 00 00 00 00
 187.492286 2  684             Rx   d 8 04 31 03 02 13 AA AA AA
 187.547099 2  604             Rx   d 8 05 71 03 02 13 03 00 00
 187.575992 2  684             Rx   d 8 02 10 01 AA AA AA AA AA
 187.586658 2  604             Rx   d 8 06 50 01 00 32 00 C8 00
 187.650367 2  6AA             Rx   d 8 02 10 03 AA AA AA AA AA
 187.657339 2  62A             Rx   d 8 06 50 03 00 32 00 C8 00
 187.704254 2  6AA             Rx   d 8 02 27 03 AA AA AA AA AA
 187.716805 2  62A             Rx   d 8 10 12 67 03 FF FD 26 60
 187.717419 2  6AA             Rx   d 8 30 00 00 AA AA AA AA AA
 187.721818 2  62A             Rx   d 8 21 83 84 65 90 78 6D 03
 187.727102 2  62A             Rx   d 8 22 3C 84 BB EA 87 00 00
 187.730420 2  6AA             Rx   d 8 10 12 27 04 F3 CD E1 A3
 187.731829 2  62A             Rx   d 8 30 08 14 00 00 00 00 00
 187.752341 2  6AA             Rx   d 8 21 17 02 97 A2 50 37 F4
 187.772723 2  6AA             Rx   d 8 22 5C E0 42 14 E7 AA AA
 187.781833 2  62A             Rx   d 8 02 67 04 00 00 00 00 00
 187.794219 2  6AA             Rx   d 8 03 22 F1 90 AA AA AA AA
 187.802280 2  62A             Rx   d 8 10 14 62 F1 90 52 4C 4E
 187.802927 2  6AA             Rx   d 8 30 00 00 AA AA AA AA AA
 187.806826 2  62A             Rx   d 8 21 56 42 4C 39 4B 32 52
 187.811799 2  62A             Rx   d 8 22 48 37 36 35 34 34 30
 187.982365 2  688             Rx   d 8 02 10 01 AA AA AA AA AA
 187.985322 2  6BD             Rx   d 8 02 10 01 AA AA AA AA AA
 187.986788 2  6A9             Rx   d 8 02 10 01 AA AA AA AA AA
 187.988738 2  629             Rx   d 8 06 50 01 00 32 00 C8 00
 187.989139 2  608             Rx   d 8 06 50 01 00 32 00 C8 00
 187.993792 2  63D             Rx   d 8 06 50 01 00 32 00 C8 00
 188.505792 2  6A9             Rx   d 8 02 10 03 AA AA AA AA AA
 188.507783 2  6BD             Rx   d 8 02 10 03 AA AA AA AA AA
 188.508725 2  629             Rx   d 8 06 50 03 00 32 00 C8 00
 188.510814 2  688             Rx   d 8 02 10 03 AA AA AA AA AA
 188.514468 2  63D             Rx   d 8 06 50 03 00 32 00 C8 00
 188.517417 2  608             Rx   d 8 06 50 03 00 32 00 C8 00
 188.559950 2  688             Rx   d 8 02 27 03 AA AA AA AA AA
 188.564300 2  6A9             Rx   d 8 02 27 03 AA AA AA AA AA
 188.566266 2  6BD             Rx   d 8 02 27 03 AA AA AA AA AA
 188.567560 2  608             Rx   d 8 10 12 67 03 7F 11 40 2D
 188.568183 2  688             Rx   d 8 30 00 00 AA AA AA AA AA
 188.569166 2  608             Rx   d 8 21 53 F9 CA 39 30 AA 42
 188.569706 2  629             Rx   d 8 10 12 67 03 9A 8D C9 6D
 188.570468 2  6A9             Rx   d 8 30 00 0A AA AA AA AA AA
 188.571115 2  608             Rx   d 8 22 BA 8F CF 36 6B 00 00
 188.573458 2  63D             Rx   d 8 10 12 67 03 A7 77 C0 5B
 188.574089 2  6BD             Rx   d 8 30 00 00 AA AA AA AA AA
 188.575097 2  63D             Rx   d 8 21 EA C8 7F 12 B9 00 94
 188.575334 2  688             Rx   d 8 10 12 27 04 0B 60 EE 6A
 188.576186 2  608             Rx   d 8 30 02 0A 00 00 00 00 00
 188.578013 2  63D             Rx   d 8 22 85 F5 68 A6 D9 00 00
 188.582019 2  6BD             Rx   d 8 10 12 27 04 15 F7 1F A8
 188.584231 2  63D             Rx   d 8 30 08 05 00 00 00 00 00
 188.586746 2  688             Rx   d 8 21 DF 99 72 F4 76 19 7F
 188.586975 2  629             Rx   d 8 21 E3 69 E6 AF DD A3 08
 188.589752 2  6BD             Rx   d 8 21 E3 51 D3 D9 A5 8B B0
 188.595134 2  6BD             Rx   d 8 22 9A EB 9A F9 07 AA AA
 188.597125 2  688             Rx   d 8 22 E5 1A 9D F2 A6 AA AA
 188.599706 2  629             Rx   d 8 22 C6 7B 89 C7 43 00 00
 188.603212 2  63D             Rx   d 8 02 67 04 00 00 00 00 00
 188.603441 2  6A9             Rx   d 8 10 12 27 04 50 A0 A8 E7
 188.606857 2  608             Rx   d 8 02 67 04 00 00 00 00 00
 188.608733 2  629             Rx   d 8 30 08 0A 00 00 00 00 00
 188.619268 2  6A9             Rx   d 8 21 A8 6A 76 F0 1D 63 15
 188.629639 2  6A9             Rx   d 8 22 F3 4E 9D 08 CE AA AA
 188.631736 2  629             Rx   d 8 02 67 04 00 00 00 00 00
 188.647358 2  6BD             Rx   d 8 03 22 F1 90 AA AA AA AA
 188.652388 2  688             Rx   d 8 03 22 F1 90 AA AA AA AA
 188.655673 2  6A9             Rx   d 8 03 22 F1 90 AA AA AA AA
 188.657541 2  63D             Rx   d 8 10 14 62 F1 90 52 4C 4E
 188.658172 2  6BD             Rx   d 8 30 00 00 AA AA AA AA AA
 188.658696 2  629             Rx   d 8 10 14 62 F1 90 52 4C 4E
 188.659491 2  6A9             Rx   d 8 30 00 0A AA AA AA AA AA
 188.660015 2  63D             Rx   d 8 21 56 42 4C 39 4B 32 52
 188.661596 2  608             Rx   d 8 10 14 62 F1 90 52 4C 4E
 188.662170 2  688             Rx   d 8 30 00 00 AA AA AA AA AA
 188.662981 2  63D             Rx   d 8 22 48 37 36 35 34 34 30
 188.663218 2  608             Rx   d 8 21 56 42 4C 39 4B 32 52
 188.667568 2  608             Rx   d 8 22 48 37 36 35 34 34 30
 188.675383 2  629             Rx   d 8 21 56 42 4C 39 4B 32 52
 188.688695 2  629             Rx   d 8 22 48 37 36 35 34 34 30
 188.964708 2  69B             Rx   d 8 02 10 01 AA AA AA AA AA
 188.966740 2  693             Rx   d 8 02 10 03 AA AA AA AA AA
 188.968681 2  6A8             Rx   d 8 02 10 01 AA AA AA AA AA
 188.968927 2  613             Rx   d 8 06 50 03 00 32 00 C8 00
 188.969574 2  628             Rx   d 8 06 50 01 00 32 00 C8 00
 188.971262 2  6F5             Rx   d 8 02 10 03 AA AA AA AA AA
 188.974891 2  675             Rx   d 8 06 50 03 00 32 00 C8 55
 188.983001 2  61B             Rx   d 8 06 50 01 00 32 00 C8 00
 189.013975 2  6F5             Rx   d 8 02 27 03 AA AA AA AA AA
 189.015392 2  675             Rx   d 8 10 12 67 03 5B 12 C6 A1
 189.016007 2  6F5             Rx   d 8 30 00 00 AA AA AA AA AA
 189.017031 2  675             Rx   d 8 21 A9 48 C4 C7 D7 DE A2
 189.018333 2  675             Rx   d 8 22 4D E5 D4 60 33 55 55
 189.021684 2  693             Rx   d 8 02 27 03 AA AA AA AA AA
 189.023191 2  6F5             Rx   d 8 10 12 27 04 39 0A 79 FC
 189.028983 2  613             Rx   d 8 10 12 67 03 DE B7 AD 1A
 189.029605 2  693             Rx   d 8 30 00 00 AA AA AA AA AA
 189.029933 2  675             Rx   d 8 30 00 0A 55 55 55 55 55
 189.033832 2  613             Rx   d 8 21 6B 37 0B 00 42 00 86
 189.038846 2  613             Rx   d 8 22 6B 00 02 42 2B 00 00
 189.040460 2  6F5             Rx   d 8 21 05 EE A5 A2 B5 CF 8E
 189.042262 2  693             Rx   d 8 10 12 27 04 2E 41 EE 4C
 189.043868 2  613             Rx   d 8 30 00 0A 00 00 00 00 00
 189.050864 2  6F5             Rx   d 8 22 2A FE 31 88 78 AA AA
 189.054378 2  693             Rx   d 8 21 0E E4 13 28 7B D7 02
 189.058523 2  675             Rx   d 8 02 67 04 55 55 55 55 55
 189.064798 2  693             Rx   d 8 22 8D DC 71 B1 65 AA AA
 189.069001 2  613             Rx   d 8 02 67 04 00 00 00 00 00
 189.086966 2  693             Rx   d 8 03 22 F1 90 AA AA AA AA
 189.089366 2  613             Rx   d 8 10 14 62 F1 90 52 4C 4E
 189.090070 2  6F5             Rx   d 8 03 22 F1 90 AA AA AA AA
 189.090455 2  693             Rx   d 8 30 00 00 AA AA AA AA AA
 189.094912 2  613             Rx   d 8 21 56 42 4C 39 4B 35 52
 189.098197 2  675             Rx   d 8 10 14 62 F1 90 52 4C 4E
 189.098779 2  6F5             Rx   d 8 30 00 00 AA AA AA AA AA
 189.099524 2  613             Rx   d 8 22 48 37 31 36 36 36 38
 189.099762 2  675             Rx   d 8 21 56 42 4C 39 4B 32 52
 189.101285 2  675             Rx   d 8 22 48 37 36 35 34 34 30
 189.109346 2  693             Rx   d 8 10 14 2E F1 90 52 4C 4E
 189.114737 2  613             Rx   d 8 30 00 0A 00 00 00 00 00
 189.125280 2  693             Rx   d 8 21 56 42 4C 39 4B 32 52
 189.135659 2  693             Rx   d 8 22 48 37 36 35 34 34 30
 189.176168 2  613             Rx   d 8 03 7F 2E 78 00 00 00 00
 189.331816 2  613             Rx   d 8 03 6E F1 90 00 00 00 00
 189.340721 2  693             Rx   d 8 03 22 F1 90 AA AA AA AA
 189.345964 2  613             Rx   d 8 10 14 62 F1 90 52 4C 4E
 189.346587 2  693             Rx   d 8 30 00 00 AA AA AA AA AA
 189.351010 2  613             Rx   d 8 21 56 42 4C 39 4B 32 52
 189.358752 2  613             Rx   d 8 22 48 37 36 35 34 34 30
 189.494919 2  6A8             Rx   d 8 02 10 03 AA AA AA AA AA
 189.496271 2  69B             Rx   d 8 02 10 03 AA AA AA AA AA
 189.497795 2  628             Rx   d 8 06 50 03 00 32 00 C8 00
 189.511934 2  61B             Rx   d 8 06 50 03 00 32 00 C8 00
 189.540147 2  6A8             Rx   d 8 02 27 03 AA AA AA AA AA
 189.541458 2  628             Rx   d 8 10 12 67 03 03 47 62 9C
 189.541687 2  69B             Rx   d 8 02 27 03 AA AA AA AA AA
 189.542187 2  6A8             Rx   d 8 30 00 00 AA AA AA AA AA
 189.543457 2  628             Rx   d 8 21 A8 BB 19 17 60 44 8A
 189.547291 2  628             Rx   d 8 22 A0 D0 BE 7F BB 00 00
 189.550698 2  6A8             Rx   d 8 10 12 27 04 34 DB A2 6F
 189.551575 2  628             Rx   d 8 30 00 14 00 00 00 00 00
 189.561807 2  61B             Rx   d 8 10 12 67 03 E1 B1 71 FC
 189.562413 2  69B             Rx   d 8 30 00 0A AA AA AA AA AA
 189.572104 2  6A8             Rx   d 8 21 9C 85 EA 02 47 27 65
 189.581803 2  61B             Rx   d 8 21 03 4B BB 2D 41 72 81
 189.592486 2  6A8             Rx   d 8 22 D0 BB 74 BD 13 AA AA
 189.596869 2  628             Rx   d 8 02 67 04 00 00 00 00 00
 189.605970 2  61B             Rx   d 8 22 F7 F2 3D 93 97 00 00
 189.609443 2  69B             Rx   d 8 10 12 27 04 0E 2C 1C 4B
 189.614965 2  61B             Rx   d 8 30 08 14 00 00 00 00 00
 189.619077 2  6A8             Rx   d 8 03 22 F1 90 AA AA AA AA
 189.620691 2  628             Rx   d 8 10 14 62 F1 90 52 4C 4E
 189.621313 2  6A8             Rx   d 8 30 00 00 AA AA AA AA AA
 189.623443 2  628             Rx   d 8 21 56 42 4C 39 4B 32 52
 189.627974 2  628             Rx   d 8 22 48 37 36 35 34 34 30
 189.635502 2  69B             Rx   d 8 21 5B D2 80 89 01 0C FB
 189.655900 2  69B             Rx   d 8 22 4B E4 A3 BB D3 AA AA
 189.671997 2  61B             Rx   d 8 02 67 04 00 00 00 00 00
 189.685809 2  69B             Rx   d 8 03 22 F1 90 AA AA AA AA
 189.703119 2  61B             Rx   d 8 10 14 62 F1 90 52 4C 4E
 189.703733 2  69B             Rx   d 8 30 00 0A AA AA AA AA AA
 189.722116 2  61B             Rx   d 8 21 56 42 4C 39 4B 32 52
 189.742178 2  61B             Rx   d 8 22 48 37 36 35 34 34 30
 189.867213 2  682             Rx   d 8 02 10 03 AA AA AA AA AA
 189.870391 2  602             Rx   d 8 06 50 03 00 32 00 C8 CC
 189.888315 2  690             Rx   d 8 02 10 03 AA AA AA AA AA
 189.892026 2  610             Rx   d 8 06 50 03 00 32 00 C8 00
 189.930324 2  6AC             Rx   d 8 02 10 03 AA AA AA AA AA
 189.933207 2  684             Rx   d 8 02 10 03 AA AA AA AA AA
 189.939147 2  62C             Rx   d 8 06 50 03 00 32 00 C8 00
 189.943677 2  604             Rx   d 8 06 50 03 00 32 00 C8 00
 189.976396 2  682             Rx   d 8 02 27 03 AA AA AA AA AA
 189.984022 2  684             Rx   d 8 02 27 03 AA AA AA AA AA
 189.989970 2  6AC             Rx   d 8 02 27 03 AA AA AA AA AA
 189.996450 2  604             Rx   d 8 10 12 67 03 2C 3A D3 CF
 189.997064 2  684             Rx   d 8 30 00 00 AA AA AA AA AA
 189.999129 2  62C             Rx   d 8 10 12 67 03 1D 6B DB 92
 190.000062 2  6AC             Rx   d 8 30 00 00 AA AA AA AA AA
 190.000546 2  602             Rx   d 8 10 12 67 03 04 18 A4 D7
 190.001103 2  62C             Rx   d 8 21 42 3C B9 ED CD 23 C6
 190.001340 2  682             Rx   d 8 30 00 00 AA AA AA AA AA
 190.001570 2  604             Rx   d 8 21 BE F3 70 DB F6 07 89
 190.001815 2  602             Rx   d 8 21 90 00 D5 24 3B 62 3D
 190.002102 2  604             Rx   d 8 22 8A EC C0 2C AF 00 00
 190.002340 2  602             Rx   d 8 22 99 72 94 94 3D CC CC
 190.003159 2  62C             Rx   d 8 22 02 6A C0 F2 5A 00 00
 190.005887 2  684             Rx   d 8 10 12 27 04 3E 5C 8E 6F
 190.007804 2  682             Rx   d 8 10 12 27 04 FB 69 84 08
 190.008099 2  602             Rx   d 8 30 08 00 CC CC CC CC CC
 190.008328 2  690             Rx   d 8 02 27 03 AA AA AA AA AA
 190.008885 2  682             Rx   d 8 21 31 4E 31 56 E6 9B 27
 190.009565 2  682             Rx   d 8 22 C5 04 31 1D 41 AA AA
 190.010491 2  6AC             Rx   d 8 10 12 27 04 6B 64 BC D5
 190.013129 2  604             Rx   d 8 30 08 14 00 00 00 00 00
 190.013391 2  62C             Rx   d 8 30 08 14 00 00 00 00 00
 190.027538 2  610             Rx   d 8 10 12 67 03 2D 43 56 17
 190.028153 2  690             Rx   d 8 30 00 00 AA AA AA AA AA
 190.033666 2  684             Rx   d 8 21 55 0B B0 6E 49 39 B8
 190.034018 2  6AC             Rx   d 8 21 65 62 88 8E C3 63 35
 190.040842 2  610             Rx   d 8 21 3E 48 18 09 17 29 26
 190.042866 2  610             Rx   d 8 22 35 4B 62 11 21 00 00
 190.046306 2  690             Rx   d 8 10 12 27 04 67 5F 40 B5
 190.050329 2  602             Rx   d 8 03 7F 27 78 CC CC CC CC
 190.054080 2  684             Rx   d 8 22 D0 8C 58 93 3D AA AA
 190.054498 2  6AC             Rx   d 8 22 C5 4D 75 89 0D AA AA
 190.059372 2  610             Rx   d 8 30 00 14 00 00 00 00 00
 190.071120 2  62C             Rx   d 8 02 67 04 00 00 00 00 00
 190.079893 2  690             Rx   d 8 21 99 23 68 C0 C8 BE 38
 190.082916 2  6AC             Rx   d 8 03 22 F1 90 AA AA AA AA
 190.099128 2  62C             Rx   d 8 10 14 62 F1 90 52 4C 4E
 190.099767 2  6AC             Rx   d 8 30 00 00 AA AA AA AA AA
 190.100267 2  690             Rx   d 8 22 4D ED 0C AF 24 AA AA
 190.101086 2  62C             Rx   d 8 21 56 42 4C 39 4B 32 52
 190.103167 2  62C             Rx   d 8 22 48 37 34 34 32 36 34
 190.109606 2  610             Rx   d 8 02 67 04 00 00 00 00 00
 190.115955 2  604             Rx   d 8 03 7F 27 78 00 00 00 00
 190.119551 2  6AC             Rx   d 8 10 14 2E F1 90 52 4C 4E
 190.121132 2  62C             Rx   d 8 30 08 14 00 00 00 00 00
 190.123647 2  690             Rx   d 8 03 22 F1 90 AA AA AA AA
 190.135280 2  610             Rx   d 8 10 14 62 F1 90 52 4C 4E
 190.135902 2  690             Rx   d 8 30 00 00 AA AA AA AA AA
 190.141637 2  6AC             Rx   d 8 21 56 42 4C 39 4B 32 52
 190.146773 2  610             Rx   d 8 21 56 42 4C 39 4B 32 52
 190.147830 2  610             Rx   d 8 22 48 37 36 35 34 34 30
 190.162026 2  6AC             Rx   d 8 22 48 37 36 35 34 34 30
 190.199153 2  62C             Rx   d 8 03 7F 2E 78 00 00 00 00
 190.233674 2  604             Rx   d 8 02 67 04 00 00 00 00 00
 190.246429 2  684             Rx   d 8 10 14 2E F1 90 52 4C 4E
 190.253285 2  604             Rx   d 8 30 08 14 00 00 00 00 00
 190.270349 2  602             Rx   d 8 02 67 04 CC CC CC CC CC
 190.274167 2  684             Rx   d 8 21 56 42 4C 39 4B 32 52
 190.283792 2  682             Rx   d 8 03 22 F1 90 AA AA AA AA
 190.294557 2  684             Rx   d 8 22 48 37 36 35 34 34 30
 190.330364 2  602             Rx   d 8 10 14 62 F1 90 52 4C 4E
 190.331019 2  682             Rx   d 8 30 00 00 AA AA AA AA AA
 190.331281 2  602             Rx   d 8 21 56 42 4C 39 4B 32 52
 190.331535 2  602             Rx   d 8 22 48 37 36 35 34 34 30
 190.346846 2  604             Rx   d 8 03 7F 2E 78 00 00 00 00
 190.447034 2  604             Rx   d 8 03 6E F1 90 00 00 00 00
 191.169634 2  62C             Rx   d 8 03 7F 2E 72 00 00 00 00
 191.181513 2  6AC             Rx   d 8 03 22 F1 90 AA AA AA AA
 191.199052 2  62C             Rx   d 8 10 14 62 F1 90 52 4C 4E
 191.199674 2  6AC             Rx   d 8 30 00 00 AA AA AA AA AA
 191.201034 2  62C             Rx   d 8 21 56 42 4C 39 4B 32 52
 191.203205 2  62C             Rx   d 8 22 48 37 34 34 32 36 34
 192.466674 2  684             Rx   d 8 10 14 2E F1 90 52 4C 4E
 192.473276 2  604             Rx   d 8 30 08 14 00 00 00 00 00
 192.493822 2  684             Rx   d 8 21 56 42 4C 39 4B 32 52
 192.514212 2  684             Rx   d 8 22 48 37 36 35 34 34 30
 192.579903 2  604             Rx   d 8 03 7F 2E 78 00 00 00 00
 192.680444 2  604             Rx   d 8 03 6E F1 90 00 00 00 00
 192.698073 2  684             Rx   d 8 03 22 F1 90 AA AA AA AA
 192.747356 2  604             Rx   d 8 03 7F 22 78 00 00 00 00
 192.853443 2  604             Rx   d 8 10 14 62 F1 90 52 4C 4E
 192.854385 2  684             Rx   d 8 30 00 00 AA AA AA AA AA
 192.862978 2  604             Rx   d 8 21 56 42 4C 39 4B 32 52
 192.863338 2  604             Rx   d 8 22 48 37 36 35 34 34 30
 192.878313 2  684             Rx   d 8 04 14 FF FF FF AA AA AA
 192.903430 2  604             Rx   d 8 01 54 00 00 00 00 00 00
 202.925171 2  684             Rx   d 8 02 10 01 AA AA AA AA AA
 202.939384 2  604             Rx   d 8 06 50 01 00 32 00 C8 00
 203.170816 2  684             Rx   d 8 02 10 03 AA AA AA AA AA
 203.177992 2  604             Rx   d 8 06 50 03 00 32 00 C8 00
 203.183661 2  684             Rx   d 8 02 85 02 AA AA AA AA AA
 203.198570 2  604             Rx   d 8 02 C5 02 00 00 00 00 00
 203.203838 2  684             Rx   d 8 02 10 41 AA AA AA AA AA
 203.212849 2  604             Rx   d 8 06 50 41 00 32 00 C8 00
 203.223605 2  684             Rx   d 8 02 27 05 AA AA AA AA AA
 203.239891 2  604             Rx   d 8 10 12 67 05 2F 6F 6F 42
 203.240505 2  684             Rx   d 8 30 00 00 AA AA AA AA AA
 203.246305 2  604             Rx   d 8 21 10 5C FF FF E1 35 23
 203.246649 2  604             Rx   d 8 22 7D 2E 55 BE 90 00 00
 203.251106 2  684             Rx   d 8 10 12 27 06 18 FC CA 96
 203.256316 2  604             Rx   d 8 30 08 14 00 00 00 00 00
 203.276829 2  684             Rx   d 8 21 54 AF 79 C5 AC 40 36
 203.297210 2  684             Rx   d 8 22 C2 4A 0D 01 FC AA AA
 203.358962 2  604             Rx   d 8 03 7F 27 78 00 00 00 00
 203.458511 2  604             Rx   d 8 02 67 06 00 00 00 00 00
 203.494105 2  684             Rx   d 8 10 21 2E F1 0A 26 01 09
 203.495498 2  604             Rx   d 8 30 08 14 00 00 00 00 00
 203.516010 2  684             Rx   d 8 21 44 53 41 20 4D 46 54
 203.536409 2  684             Rx   d 8 22 00 00 00 00 00 00 00
 203.556798 2  684             Rx   d 8 23 00 00 00 00 00 00 00
 203.577188 2  684             Rx   d 8 24 00 00 00 00 00 00 AA
 203.629732 2  604             Rx   d 8 03 7F 2E 78 00 00 00 00
 203.717591 2  604             Rx   d 8 03 6E F1 0A 00 00 00 00
 203.744666 2  684             Rx   d 8 10 40 2E F1 08 00 34 48
 203.756061 2  604             Rx   d 8 30 08 14 00 00 00 00 00
 203.776582 2  684             Rx   d 8 21 37 36 35 34 34 30 01
 203.796963 2  684             Rx   d 8 22 0E 64 41 55 5F 64 02
 203.817337 2  684             Rx   d 8 23 65 56 06 03 07 65 56
 203.837727 2  684             Rx   d 8 24 55 00 02 01 00 00 00
 203.858133 2  684             Rx   d 8 25 00 00 00 00 00 00 00
 203.878531 2  684             Rx   d 8 26 00 00 00 00 00 00 00
 203.898921 2  684             Rx   d 8 27 00 00 00 00 00 00 00
 203.919335 2  684             Rx   d 8 28 00 00 00 00 72 9C D2
 203.926806 2  604             Rx   d 8 30 08 14 00 00 00 00 00
 203.947327 2  684             Rx   d 8 29 48 E6 AA AA AA AA AA
 204.009947 2  604             Rx   d 8 03 7F 2E 78 00 00 00 00
 205.379273 2  604             Rx   d 8 03 6E F1 08 00 00 00 00
 207.406129 2  684             Rx   d 8 04 31 01 02 00 AA AA AA
 207.412552 2  604             Rx   d 8 04 71 01 02 00 00 00 00
 207.446147 2  684             Rx   d 8 04 14 FF FF FF AA AA AA
 207.473041 2  604             Rx   d 8 01 54 00 00 00 00 00 00
 207.477711 2  684             Rx   d 8 02 10 01 AA AA AA AA AA
 207.489950 2  604             Rx   d 8 06 50 01 00 32 00 C8 00
 207.497134 2  684             Rx   d 8 02 10 03 AA AA AA AA AA
 207.511069 2  604             Rx   d 8 06 50 03 00 32 00 C8 00
 207.554953 2  684             Rx   d 8 02 10 01 AA AA AA AA AA
 207.560057 2  604             Rx   d 8 06 50 01 00 32 00 C8 00
 208.072942 2  684             Rx   d 8 02 10 03 AA AA AA AA AA
 208.080912 2  604             Rx   d 8 06 50 03 00 32 00 C8 00
 208.089473 2  684             Rx   d 8 02 27 03 AA AA AA AA AA
 208.107758 2  604             Rx   d 8 10 12 67 03 46 93 FC D2
 208.108380 2  684             Rx   d 8 30 00 00 AA AA AA AA AA
 208.116375 2  604             Rx   d 8 21 AD DC D7 92 92 09 CE
 208.116744 2  604             Rx   d 8 22 BC 31 25 16 65 00 00
 208.120127 2  684             Rx   d 8 10 12 27 04 66 F4 61 E0
 208.127467 2  604             Rx   d 8 30 08 14 00 00 00 00 00
 208.147972 2  684             Rx   d 8 21 33 E4 6D 2D BE 3C A3
 208.168354 2  684             Rx   d 8 22 08 89 D4 14 88 AA AA
 208.219922 2  604             Rx   d 8 03 7F 27 78 00 00 00 00
 208.331006 2  604             Rx   d 8 02 67 04 00 00 00 00 00
 208.463069 2  684             Rx   d 8 05 31 01 02 0E 01 AA AA
 208.511263 2  604             Rx   d 8 03 7F 31 78 00 00 00 00
 210.575909 2  604             Rx   d 8 03 7F 31 78 00 00 00 00
 212.612727 2  604             Rx   d 8 03 7F 31 78 00 00 00 00
 214.672392 2  604             Rx   d 8 03 7F 31 78 00 00 00 00
 216.742511 2  604             Rx   d 8 03 7F 31 78 00 00 00 00
 218.822754 2  604             Rx   d 8 03 7F 31 78 00 00 00 00
 220.874367 2  604             Rx   d 8 03 7F 31 78 00 00 00 00
 222.974271 2  604             Rx   d 8 03 7F 31 78 00 00 00 00
 222.975222 2  684             Rx   d 8 05 31 01 02 0E 01 AA AA
 223.125840 2  684             Rx   d 8 05 31 01 02 0E 01 AA AA
 223.276794 2  684             Rx   d 8 05 31 01 02 0E 01 AA AA
 225.119789 2  604             Rx   d 8 03 7F 31 78 00 00 00 00
 227.241329 2  604             Rx   d 8 03 7F 31 78 00 00 00 00
 228.451795 2  684             Rx   d 8 05 31 01 02 0E 01 AA AA
 228.602560 2  684             Rx   d 8 05 31 01 02 0E 01 AA AA
 228.753195 2  684             Rx   d 8 05 31 01 02 0E 01 AA AA
 228.903821 2  684             Rx   d 8 05 31 01 02 0E 01 AA AA
 229.376303 2  604             Rx   d 8 03 7F 31 78 00 00 00 00
 231.479632 2  604             Rx   d 8 03 7F 31 78 00 00 00 00
 231.543644 2  684             Rx   d 8 02 3E 00 AA AA AA AA AA
 233.597288 2  604             Rx   d 8 03 7F 31 78 00 00 00 00
 235.727585 2  604             Rx   d 8 03 7F 31 78 00 00 00 00
 237.804429 2  604             Rx   d 8 03 7F 31 78 00 00 00 00
 239.891440 2  604             Rx   d 8 03 7F 31 78 00 00 00 00
 241.949696 2  604             Rx   d 8 03 7F 31 78 00 00 00 00
 244.080624 2  604             Rx   d 8 03 7F 31 78 00 00 00 00
 246.121193 2  604             Rx   d 8 03 7F 31 78 00 00 00 00
 248.194081 2  604             Rx   d 8 03 7F 31 78 00 00 00 00
 250.295321 2  604             Rx   d 8 03 7F 31 78 00 00 00 00
 252.347261 2  604             Rx   d 8 03 7F 31 78 00 00 00 00
 254.466777 2  604             Rx   d 8 03 7F 31 78 00 00 00 00
 256.586260 2  604             Rx   d 8 03 7F 31 78 00 00 00 00
 258.726044 2  604             Rx   d 8 03 7F 31 78 00 00 00 00
 260.818559 2  604             Rx   d 8 03 7F 31 78 00 00 00 00
 262.888415 2  604             Rx   d 8 03 7F 31 78 00 00 00 00
 264.997298 2  604             Rx   d 8 03 7F 31 78 00 00 00 00
 266.530636 2  604             Rx   d 8 06 71 01 02 0E 01 01 00
 279.998923 2  684             Rx   d 8 02 3E 00 AA AA AA AA AA
 280.004018 2  604             Rx   d 8 02 7E 00 00 00 00 00 00
 282.046349 2  684             Rx   d 8 02 85 01 AA AA AA AA AA
 282.057597 2  604             Rx   d 8 03 7F 85 7F 00 00 00 00
 282.067845 2  684             Rx   d 8 02 10 01 AA AA AA AA AA
 282.074456 2  604             Rx   d 8 06 50 01 00 32 00 C8 00
 282.798678 2  684             Rx   d 8 02 10 03 AA AA AA AA AA
 282.808492 2  604             Rx   d 8 06 50 03 00 32 00 C8 00
 282.874970 2  684             Rx   d 8 02 85 02 AA AA AA AA AA
 282.883940 2  604             Rx   d 8 02 C5 02 00 00 00 00 00
 282.888987 2  684             Rx   d 8 02 10 41 AA AA AA AA AA
 282.894901 2  604             Rx   d 8 06 50 41 00 32 00 C8 00
 282.918674 2  684             Rx   d 8 02 27 05 AA AA AA AA AA
 282.927055 2  604             Rx   d 8 10 12 67 05 41 7E CF A9
 282.927669 2  684             Rx   d 8 30 00 00 AA AA AA AA AA
 282.931421 2  604             Rx   d 8 21 DB D6 70 9F 46 25 E2
 282.933346 2  604             Rx   d 8 22 4F 6C F1 E2 8A 00 00
 282.937582 2  684             Rx   d 8 10 12 27 06 31 F1 71 18
 282.940719 2  604             Rx   d 8 30 08 14 00 00 00 00 00
 282.961248 2  684             Rx   d 8 21 E1 E6 D8 9F 97 EF 8F
 282.981630 2  684             Rx   d 8 22 B1 72 7B 47 8D AA AA
 283.033985 2  604             Rx   d 8 03 7F 27 78 00 00 00 00
 283.127333 2  604             Rx   d 8 02 67 06 00 00 00 00 00
 283.139072 2  684             Rx   d 8 03 22 F1 12 AA AA AA AA
 283.183948 2  604             Rx   d 8 03 7F 22 78 00 00 00 00
 283.395318 2  604             Rx   d 8 11 03 62 F1 12 FF 24 04
 283.395948 2  684             Rx   d 8 30 00 00 AA AA AA AA AA
 283.401511 2  604             Rx   d 8 21 07 60 02 01 31 01 01
 283.402723 2  604             Rx   d 8 22 08 11 11 11 02 11 11
 283.403665 2  604             Rx   d 8 23 11 11 11 21 11 21 21
 283.403993 2  604             Rx   d 8 24 12 11 11 11 11 11 11
 283.404460 2  604             Rx   d 8 25 11 31 11 11 11 11 11
 283.406844 2  604             Rx   d 8 26 11 11 11 11 11 01 11
 283.407163 2  604             Rx   d 8 27 11 21 15 11 22 14 01
 283.407507 2  604             Rx   d 8 28 11 11 11 21 11 11 11
 283.407974 2  604             Rx   d 8 29 11 11 12 21 20 21 11
 283.408376 2  604             Rx   d 8 2A 11 21 12 12 10 12 11
 283.408703 2  604             Rx   d 8 2B 11 11 01 01 21 11 11
 283.409031 2  604             Rx   d 8 2C 11 11 11 11 11 11 11
 283.409555 2  604             Rx   d 8 2D 11 11 11 11 11 21 11
 283.409908 2  604             Rx   d 8 2E 21 11 01 11 21 11 11
 283.410850 2  604             Rx   d 8 2F 11 11 22 11 12 11 11
 283.411612 2  604             Rx   d 8 20 17 01 00 00 00 00 00
 283.413070 2  604             Rx   d 8 21 00 00 00 00 00 00 00
 283.413479 2  604             Rx   d 8 22 00 00 00 00 00 00 00
 283.413856 2  604             Rx   d 8 23 00 00 00 00 00 00 00
 283.414233 2  604             Rx   d 8 24 00 00 00 00 00 00 00
 283.414618 2  604             Rx   d 8 25 00 00 00 00 00 00 00
 283.416314 2  604             Rx   d 8 26 00 00 00 00 00 00 00
 283.416846 2  604             Rx   d 8 27 00 00 00 00 00 00 00
 283.417166 2  604             Rx   d 8 28 00 00 00 00 00 00 00
 283.417534 2  604             Rx   d 8 29 00 00 00 00 00 00 00
 283.418026 2  604             Rx   d 8 2A 00 00 00 00 00 00 00
 283.418591 2  604             Rx   d 8 2B 00 00 00 00 00 00 00
 283.418952 2  604             Rx   d 8 2C 00 00 00 00 00 00 00
 283.419591 2  604             Rx   d 8 2D 00 00 00 00 00 00 00
 283.419951 2  604             Rx   d 8 2E 00 00 00 00 00 00 00
 283.420467 2  604             Rx   d 8 2F 00 00 00 00 00 00 00
 283.420869 2  604             Rx   d 8 20 00 00 00 00 00 00 00
 283.421180 2  604             Rx   d 8 21 00 00 00 00 00 00 00
 283.421581 2  604             Rx   d 8 22 00 00 00 00 00 00 00
 283.427348 2  604             Rx   d 8 23 00 00 00 00 00 00 00
 283.427848 2  604             Rx   d 8 24 00 00 00 00 00 00 00
 283.428553 2  604             Rx   d 8 25 17 00 00 00 00 00 00
 283.437498 2  684             Rx   d 8 10 21 2E F1 13 26 01 09
 283.440873 2  604             Rx   d 8 30 08 14 00 00 00 00 00
 283.461403 2  684             Rx   d 8 21 44 53 41 20 4D 46 54
 283.481809 2  684             Rx   d 8 22 00 00 00 00 00 00 00
 283.502551 2  684             Rx   d 8 23 00 00 00 00 00 00 00
 283.522965 2  684             Rx   d 8 24 00 00 00 00 00 30 AA
 283.583955 2  604             Rx   d 8 03 7F 2E 78 00 00 00 00
 283.667349 2  604             Rx   d 8 03 6E F1 13 00 00 00 00
 283.672871 2  684             Rx   d 8 11 03 2E F1 11 FF 24 04
 283.680096 2  604             Rx   d 8 30 08 14 00 00 00 00 00
 283.700625 2  684             Rx   d 8 21 07 62 02 0E 0B 01 61
 283.721007 2  684             Rx   d 8 22 08 11 11 11 12 11 11
 283.741372 2  684             Rx   d 8 23 11 11 11 21 11 21 01
 283.761746 2  684             Rx   d 8 24 10 11 11 11 11 11 11
 283.782119 2  684             Rx   d 8 25 11 31 11 11 11 11 11
 283.802501 2  684             Rx   d 8 26 11 11 11 11 11 01 11
 283.822866 2  684             Rx   d 8 27 11 21 15 11 22 14 11
 283.843240 2  684             Rx   d 8 28 11 11 11 21 11 11 11
 283.851309 2  604             Rx   d 8 30 08 14 00 00 00 00 00
 283.871830 2  684             Rx   d 8 29 11 11 12 21 21 21 11
 283.892212 2  684             Rx   d 8 2A 21 21 12 12 10 12 11
 283.912577 2  684             Rx   d 8 2B 11 11 01 01 21 12 11
 283.932950 2  684             Rx   d 8 2C 11 11 11 11 11 11 11
 283.953332 2  684             Rx   d 8 2D 11 11 11 11 11 21 11
 283.973714 2  684             Rx   d 8 2E 11 11 01 11 21 11 11
 283.994071 2  684             Rx   d 8 2F 11 11 22 11 12 11 12
 284.014870 2  684             Rx   d 8 20 17 0D 00 00 00 00 00
 284.020777 2  604             Rx   d 8 30 08 14 00 00 00 00 00
 284.041281 2  684             Rx   d 8 21 00 00 00 00 00 00 00
 284.061680 2  684             Rx   d 8 22 00 00 00 00 00 00 00
 284.082069 2  684             Rx   d 8 23 00 00 00 00 00 00 00
 284.102517 2  684             Rx   d 8 24 00 00 00 00 00 00 00
 284.122898 2  684             Rx   d 8 25 00 00 00 00 00 00 00
 284.143288 2  684             Rx   d 8 26 00 00 00 00 00 00 00
 284.163678 2  684             Rx   d 8 27 00 00 00 00 00 00 00
 284.184076 2  684             Rx   d 8 28 00 00 00 00 00 00 00
 284.192719 2  604             Rx   d 8 30 08 14 00 00 00 00 00
 284.213223 2  684             Rx   d 8 29 00 00 00 00 00 00 00
 284.233621 2  684             Rx   d 8 2A 00 00 00 00 00 00 00
 284.254020 2  684             Rx   d 8 2B 00 00 00 00 00 00 00
 284.274450 2  684             Rx   d 8 2C 00 00 00 00 00 00 00
 284.294840 2  684             Rx   d 8 2D 00 00 00 00 00 00 00
 284.315230 2  684             Rx   d 8 2E 00 00 00 00 00 00 00
 284.335620 2  684             Rx   d 8 2F 00 00 00 00 00 00 00
 284.356018 2  684             Rx   d 8 20 00 00 00 00 00 00 00
 284.362727 2  604             Rx   d 8 30 08 14 00 00 00 00 00
 284.383297 2  684             Rx   d 8 21 00 00 00 00 00 00 00
 284.403696 2  684             Rx   d 8 22 00 00 00 00 00 00 00
 284.424085 2  684             Rx   d 8 23 00 00 00 00 00 00 00
 284.444475 2  684             Rx   d 8 24 00 00 00 00 00 00 00
 284.464841 2  684             Rx   d 8 25 7C AA AA AA AA AA AA
 284.515353 2  604             Rx   d 8 03 7F 2E 78 00 00 00 00
 284.615909 2  604             Rx   d 8 03 7F 2E 72 00 00 00 00
 284.644532 2  684             Rx   d 8 11 03 2E F1 11 FF 24 04
 284.650865 2  604             Rx   d 8 30 08 14 00 00 00 00 00
 284.671377 2  684             Rx   d 8 21 07 62 02 0E 0B 01 61
 284.691759 2  684             Rx   d 8 22 08 11 11 11 12 11 11
 284.712141 2  684             Rx   d 8 23 11 11 11 21 11 21 01
 284.732506 2  684             Rx   d 8 24 10 11 11 11 11 11 11
 284.752871 2  684             Rx   d 8 25 11 31 11 11 11 11 11
 284.773253 2  684             Rx   d 8 26 11 11 11 11 11 01 11
 284.793618 2  684             Rx   d 8 27 11 21 15 11 22 14 11
 284.813984 2  684             Rx   d 8 28 11 11 11 21 11 11 11
 284.820890 2  604             Rx   d 8 30 08 14 00 00 00 00 00
 284.841378 2  684             Rx   d 8 29 11 11 12 21 21 21 11
 284.861768 2  684             Rx   d 8 2A 21 21 12 12 10 12 11
 284.882149 2  684             Rx   d 8 2B 11 11 01 01 21 12 11
 284.902523 2  684             Rx   d 8 2C 11 11 11 11 11 11 11
 284.922896 2  684             Rx   d 8 2D 11 11 11 11 11 21 11
 284.943270 2  684             Rx   d 8 2E 11 11 01 11 21 11 11
 284.963635 2  684             Rx   d 8 2F 11 11 22 11 12 11 12
 284.984017 2  684             Rx   d 8 20 17 0D 00 00 00 00 00
 284.993438 2  604             Rx   d 8 30 08 14 00 00 00 00 00
 285.013950 2  684             Rx   d 8 21 00 00 00 00 00 00 00
 285.034348 2  684             Rx   d 8 22 00 00 00 00 00 00 00
 285.054747 2  684             Rx   d 8 23 00 00 00 00 00 00 00
 285.075136 2  684             Rx   d 8 24 00 00 00 00 00 00 00
 285.095526 2  684             Rx   d 8 25 00 00 00 00 00 00 00
 285.115908 2  684             Rx   d 8 26 00 00 00 00 00 00 00
 285.136306 2  684             Rx   d 8 27 00 00 00 00 00 00 00
 285.156696 2  684             Rx   d 8 28 00 00 00 00 00 00 00
 285.162701 2  604             Rx   d 8 30 08 14 00 00 00 00 00
 285.183205 2  684             Rx   d 8 29 00 00 00 00 00 00 00
 285.203595 2  684             Rx   d 8 2A 00 00 00 00 00 00 00
 285.223993 2  684             Rx   d 8 2B 00 00 00 00 00 00 00
 285.244383 2  684             Rx   d 8 2C 00 00 00 00 00 00 00
 285.265101 2  684             Rx   d 8 2D 00 00 00 00 00 00 00
 285.285499 2  684             Rx   d 8 2E 00 00 00 00 00 00 00
 285.305897 2  684             Rx   d 8 2F 00 00 00 00 00 00 00
 285.326287 2  684             Rx   d 8 20 00 00 00 00 00 00 00
 285.333307 2  604             Rx   d 8 30 08 14 00 00 00 00 00
 285.353804 2  684             Rx   d 8 21 00 00 00 00 00 00 00
 285.374210 2  684             Rx   d 8 22 00 00 00 00 00 00 00
 285.394616 2  684             Rx   d 8 23 00 00 00 00 00 00 00
 285.415006 2  684             Rx   d 8 24 00 00 00 00 00 00 00
 285.435380 2  684             Rx   d 8 25 7C AA AA AA AA AA AA
 285.483729 2  604             Rx   d 8 03 7F 2E 78 00 00 00 00
 285.576372 2  604             Rx   d 8 03 7F 2E 72 00 00 00 00
 285.586866 2  684             Rx   d 8 11 03 2E F1 12 FF 24 04
 285.593338 2  604             Rx   d 8 30 08 14 00 00 00 00 00
 285.613883 2  684             Rx   d 8 21 07 62 02 0E 0B 01 61
 285.634265 2  684             Rx   d 8 22 08 11 11 11 12 11 11
 285.654639 2  684             Rx   d 8 23 11 11 11 21 11 21 01
 285.675012 2  684             Rx   d 8 24 10 11 11 11 11 11 11
 285.695386 2  684             Rx   d 8 25 11 31 11 11 11 11 11
 285.715751 2  684             Rx   d 8 26 11 11 11 11 11 01 11
 285.736116 2  684             Rx   d 8 27 11 21 15 11 22 14 11
 285.756490 2  684             Rx   d 8 28 11 11 11 21 11 11 11
 285.761610 2  604             Rx   d 8 30 08 14 00 00 00 00 00
 285.782081 2  684             Rx   d 8 29 11 11 12 21 21 21 11
 285.802496 2  684             Rx   d 8 2A 21 21 12 12 10 12 11
 285.822869 2  684             Rx   d 8 2B 11 11 01 01 21 12 11
 285.843251 2  684             Rx   d 8 2C 11 11 11 11 11 11 11
 285.863633 2  684             Rx   d 8 2D 11 11 11 11 11 21 11
 285.884023 2  684             Rx   d 8 2E 11 11 01 11 21 11 11
 285.904388 2  684             Rx   d 8 2F 11 11 22 11 12 11 12
 285.924778 2  684             Rx   d 8 20 17 0D 00 00 00 00 00
 285.931717 2  604             Rx   d 8 30 08 14 00 00 00 00 00
 285.952221 2  684             Rx   d 8 21 00 00 00 00 00 00 00
 285.972611 2  684             Rx   d 8 22 00 00 00 00 00 00 00
 285.993001 2  684             Rx   d 8 23 00 00 00 00 00 00 00
 286.013718 2  684             Rx   d 8 24 00 00 00 00 00 00 00
 286.034117 2  684             Rx   d 8 25 00 00 00 00 00 00 00
 286.054547 2  684             Rx   d 8 26 00 00 00 00 00 00 00
 286.074937 2  684             Rx   d 8 27 00 00 00 00 00 00 00
 286.095327 2  684             Rx   d 8 28 00 00 00 00 00 00 00
 286.100767 2  604             Rx   d 8 30 08 14 00 00 00 00 00
 286.121320 2  684             Rx   d 8 29 00 00 00 00 00 00 00
 286.141735 2  684             Rx   d 8 2A 00 00 00 00 00 00 00
 286.162133 2  684             Rx   d 8 2B 00 00 00 00 00 00 00
 286.182556 2  684             Rx   d 8 2C 00 00 00 00 00 00 00
 286.202962 2  684             Rx   d 8 2D 00 00 00 00 00 00 00
 286.223352 2  684             Rx   d 8 2E 00 00 00 00 00 00 00
 286.243733 2  684             Rx   d 8 2F 00 00 00 00 00 00 00
 286.264459 2  684             Rx   d 8 20 00 00 00 00 00 00 00
 286.272684 2  604             Rx   d 8 30 08 14 00 00 00 00 00
 286.293189 2  684             Rx   d 8 21 00 00 00 00 00 00 00
 286.313578 2  684             Rx   d 8 22 00 00 00 00 00 00 00
 286.333968 2  684             Rx   d 8 23 00 00 00 00 00 00 00
 286.354366 2  684             Rx   d 8 24 00 00 00 00 00 00 00
 286.374748 2  684             Rx   d 8 25 7C AA AA AA AA AA AA
 286.426522 2  604             Rx   d 8 03 7F 2E 78 00 00 00 00
 286.667358 2  604             Rx   d 8 03 6E F1 12 00 00 00 00
 287.688245 2  684             Rx   d 8 04 31 01 02 01 AA AA AA
 287.706169 2  604             Rx   d 8 04 71 01 02 01 00 00 00
 287.730885 2  684             Rx   d 8 04 31 01 02 01 AA AA AA
 287.746310 2  604             Rx   d 8 04 71 01 02 01 00 00 00
 287.754297 2  684             Rx   d 8 03 22 F1 12 AA AA AA AA
 287.815909 2  604             Rx   d 8 03 7F 22 78 00 00 00 00
 288.036135 2  604             Rx   d 8 11 03 62 F1 12 FF 24 04
 288.036757 2  684             Rx   d 8 30 00 00 AA AA AA AA AA
 288.042631 2  604             Rx   d 8 21 07 62 02 0E 0B 01 61
 288.044048 2  604             Rx   d 8 22 08 11 11 11 12 11 11
 288.046416 2  604             Rx   d 8 23 11 11 11 21 11 21 01
 288.047129 2  604             Rx   d 8 24 10 11 11 11 11 11 11
 288.047448 2  604             Rx   d 8 25 11 31 11 11 11 11 11
 288.048529 2  604             Rx   d 8 26 11 11 11 11 11 01 11
 288.048873 2  604             Rx   d 8 27 11 21 15 11 22 14 11
 288.049201 2  604             Rx   d 8 28 11 11 11 21 11 11 11
 288.049521 2  604             Rx   d 8 29 11 11 12 21 21 21 11
 288.049906 2  604             Rx   d 8 2A 21 21 12 12 10 12 11
 288.050184 2  604             Rx   d 8 2B 11 11 01 01 21 12 11
 288.050512 2  604             Rx   d 8 2C 11 11 11 11 11 11 11
 288.051487 2  604             Rx   d 8 2D 11 11 11 11 11 21 11
 288.054124 2  604             Rx   d 8 2E 11 11 01 11 21 11 11
 288.054493 2  604             Rx   d 8 2F 11 11 22 11 12 11 12
 288.055067 2  604             Rx   d 8 20 17 0D 00 00 00 00 00
 288.056656 2  604             Rx   d 8 21 00 00 00 00 00 00 00
 288.057000 2  604             Rx   d 8 22 00 00 00 00 00 00 00
 288.057745 2  604             Rx   d 8 23 00 00 00 00 00 00 00
 288.058253 2  604             Rx   d 8 24 00 00 00 00 00 00 00
 288.058606 2  604             Rx   d 8 25 00 00 00 00 00 00 00
 288.058941 2  604             Rx   d 8 26 00 00 00 00 00 00 00
 288.059433 2  604             Rx   d 8 27 00 00 00 00 00 00 00
 288.059916 2  604             Rx   d 8 28 00 00 00 00 00 00 00
 288.060244 2  604             Rx   d 8 29 00 00 00 00 00 00 00
 288.060596 2  604             Rx   d 8 2A 00 00 00 00 00 00 00
 288.061096 2  604             Rx   d 8 2B 00 00 00 00 00 00 00
 288.061563 2  604             Rx   d 8 2C 00 00 00 00 00 00 00
 288.063488 2  604             Rx   d 8 2D 00 00 00 00 00 00 00
 288.063922 2  604             Rx   d 8 2E 00 00 00 00 00 00 00
 288.064348 2  604             Rx   d 8 2F 00 00 00 00 00 00 00
 288.064717 2  604             Rx   d 8 20 00 00 00 00 00 00 00
 288.068108 2  604             Rx   d 8 21 00 00 00 00 00 00 00
 288.068460 2  604             Rx   d 8 22 00 00 00 00 00 00 00
 288.068911 2  604             Rx   d 8 23 00 00 00 00 00 00 00
 288.069271 2  604             Rx   d 8 24 00 00 00 00 00 00 00
 288.069738 2  604             Rx   d 8 25 7C 00 00 00 00 00 00
 288.087261 2  684             Rx   d 8 04 14 FF FF FF AA AA AA
 288.109142 2  604             Rx   d 8 01 54 00 00 00 00 00 00
 288.114188 2  684             Rx   d 8 02 10 01 AA AA AA AA AA
 288.127263 2  604             Rx   d 8 06 50 01 00 32 00 C8 00
 288.131965 2  684             Rx   d 8 02 10 03 AA AA AA AA AA
 288.137167 2  604             Rx   d 8 06 50 03 00 32 00 C8 00
 288.147300 2  684             Rx   d 8 02 85 01 AA AA AA AA AA
 288.164340 2  604             Rx   d 8 02 C5 01 00 00 00 00 00
 288.168976 2  684             Rx   d 8 02 10 01 AA AA AA AA AA
 288.179651 2  604             Rx   d 8 06 50 01 00 32 00 C8 00
 288.188072 2  684             Rx   d 8 02 10 01 AA AA AA AA AA
 288.204243 2  604             Rx   d 8 06 50 01 00 32 00 C8 00
 288.727769 2  682             Rx   d 8 02 10 03 AA AA AA AA AA
 288.731218 2  602             Rx   d 8 06 50 03 00 32 00 C8 CC
 288.774734 2  682             Rx   d 8 02 85 02 AA AA AA AA AA
 288.781205 2  602             Rx   d 8 02 C5 02 CC CC CC CC CC
 288.785834 2  682             Rx   d 8 02 10 41 AA AA AA AA AA
 288.791232 2  602             Rx   d 8 06 50 41 00 32 00 C8 CC
 288.813851 2  682             Rx   d 8 02 27 05 AA AA AA AA AA
 288.841228 2  602             Rx   d 8 10 12 67 05 17 B6 AC B8
 288.841851 2  682             Rx   d 8 30 00 00 AA AA AA AA AA
 288.842113 2  602             Rx   d 8 21 7A 6A 54 DF 0C 35 F1
 288.842367 2  602             Rx   d 8 22 90 DB 17 62 3F CC CC
 288.845603 2  682             Rx   d 8 10 12 27 06 62 65 AD CE
 288.845914 2  602             Rx   d 8 30 08 00 CC CC CC CC CC
 288.846725 2  682             Rx   d 8 21 5D 9E DB 37 25 E9 A8
 288.847364 2  682             Rx   d 8 22 E1 09 0C 69 BF AA AA
 288.891167 2  602             Rx   d 8 03 7F 27 78 CC CC CC CC
 289.071169 2  602             Rx   d 8 02 67 06 CC CC CC CC CC
 289.093001 2  682             Rx   d 8 03 22 F1 12 AA AA AA AA
 289.141055 2  602             Rx   d 8 03 7F 22 78 CC CC CC CC
 289.231135 2  602             Rx   d 8 11 03 62 F1 12 FF 24 04
 289.231741 2  682             Rx   d 8 30 00 00 AA AA AA AA AA
 289.232011 2  602             Rx   d 8 21 07 62 02 0E 0B 01 61
 289.232265 2  602             Rx   d 8 22 08 11 11 11 12 11 11
 289.232519 2  602             Rx   d 8 23 11 11 11 21 11 21 01
 289.232781 2  602             Rx   d 8 24 10 11 11 11 11 11 11
 289.233035 2  602             Rx   d 8 25 11 31 11 11 11 11 11
 289.233289 2  602             Rx   d 8 26 11 11 11 11 11 01 11
 289.233543 2  602             Rx   d 8 27 11 21 15 11 22 14 11
 289.233797 2  602             Rx   d 8 28 11 11 11 21 11 11 11
 289.234051 2  602             Rx   d 8 29 11 11 12 21 21 21 11
 289.234313 2  602             Rx   d 8 2A 21 21 12 12 10 12 11
 289.234567 2  602             Rx   d 8 2B 11 11 01 01 21 12 11
 289.234821 2  602             Rx   d 8 2C 11 11 11 11 11 11 11
 289.235067 2  602             Rx   d 8 2D 11 11 11 11 11 21 11
 289.235329 2  602             Rx   d 8 2E 11 11 01 11 21 11 11
 289.235583 2  602             Rx   d 8 2F 11 11 22 11 12 11 12
 289.235894 2  602             Rx   d 8 20 17 0D 00 00 00 00 00
 289.236173 2  602             Rx   d 8 21 00 00 00 00 00 00 00
 289.236451 2  602             Rx   d 8 22 00 00 00 00 00 00 00
 289.236722 2  602             Rx   d 8 23 00 00 00 00 00 00 00
 289.237000 2  602             Rx   d 8 24 00 00 00 00 00 00 00
 289.237279 2  602             Rx   d 8 25 00 00 00 00 00 00 00
 289.237549 2  602             Rx   d 8 26 00 00 00 00 00 00 00
 289.237828 2  602             Rx   d 8 27 00 00 00 00 00 00 00
 289.238106 2  602             Rx   d 8 28 00 00 00 00 00 00 00
 289.238385 2  602             Rx   d 8 29 00 00 00 00 00 00 00
 289.238663 2  602             Rx   d 8 2A 00 00 00 00 00 00 00
 289.238942 2  602             Rx   d 8 2B 00 00 00 00 00 00 00
 289.239212 2  602             Rx   d 8 2C 00 00 00 00 00 00 00
 289.239491 2  602             Rx   d 8 2D 00 00 00 00 00 00 00
 289.239769 2  602             Rx   d 8 2E 00 00 00 00 00 00 00
 289.240039 2  602             Rx   d 8 2F 00 00 00 00 00 00 00
 289.240326 2  602             Rx   d 8 20 00 00 00 00 00 00 00
 289.240605 2  602             Rx   d 8 21 00 00 00 00 00 00 00
 289.240924 2  602             Rx   d 8 22 00 00 00 00 00 00 00
 289.241203 2  602             Rx   d 8 23 00 00 00 00 00 00 00
 289.241473 2  602             Rx   d 8 24 00 00 00 00 00 00 00
 289.241727 2  602             Rx   d 8 25 7C CC CC CC CC CC CC
 289.266688 2  682             Rx   d 8 10 21 2E F1 13 26 01 09
 289.266958 2  602             Rx   d 8 30 08 00 CC CC CC CC CC
 289.267786 2  682             Rx   d 8 21 44 53 41 20 4D 46 54
 289.268457 2  682             Rx   d 8 22 00 00 00 00 00 00 00
 289.269006 2  682             Rx   d 8 23 00 00 00 00 00 00 00
 289.269645 2  682             Rx   d 8 24 00 00 00 00 00 30 AA
 289.311130 2  602             Rx   d 8 03 7F 2E 78 CC CC CC CC
 289.391149 2  602             Rx   d 8 03 6E F1 13 CC CC CC CC
 289.414373 2  682             Rx   d 8 11 03 2E F1 11 FF 24 04
 289.414635 2  602             Rx   d 8 30 08 00 CC CC CC CC CC
 289.415479 2  682             Rx   d 8 21 07 62 02 0E 0B 01 61
 289.416126 2  682             Rx   d 8 22 08 11 11 11 12 11 11
 289.416651 2  682             Rx   d 8 23 11 11 11 21 11 21 01
 289.417290 2  682             Rx   d 8 24 10 11 11 11 11 11 11
 289.417912 2  682             Rx   d 8 25 11 31 11 11 11 11 11
 289.418535 2  682             Rx   d 8 26 11 11 11 11 11 01 11
 289.419182 2  682             Rx   d 8 27 11 21 15 11 22 14 11
 289.419829 2  682             Rx   d 8 28 11 11 11 21 11 11 11
 289.420091 2  602             Rx   d 8 30 08 00 CC CC CC CC CC
 289.420853 2  682             Rx   d 8 29 11 11 12 21 21 21 11
 289.421492 2  682             Rx   d 8 2A 21 21 12 12 10 12 11
 289.422016 2  682             Rx   d 8 2B 11 11 01 01 21 12 11
 289.422647 2  682             Rx   d 8 2C 11 11 11 11 11 11 11
 289.423278 2  682             Rx   d 8 2D 11 11 11 11 11 21 11
 289.423909 2  682             Rx   d 8 2E 11 11 01 11 21 11 11
 289.424531 2  682             Rx   d 8 2F 11 11 22 11 12 11 12
 289.425170 2  682             Rx   d 8 20 17 0D 00 00 00 00 00
 289.425433 2  602             Rx   d 8 30 08 00 CC CC CC CC CC
 289.426211 2  682             Rx   d 8 21 00 00 00 00 00 00 00
 289.426899 2  682             Rx   d 8 22 00 00 00 00 00 00 00
 289.427440 2  682             Rx   d 8 23 00 00 00 00 00 00 00
 289.428087 2  682             Rx   d 8 24 00 00 00 00 00 00 00
 289.428734 2  682             Rx   d 8 25 00 00 00 00 00 00 00
 289.429381 2  682             Rx   d 8 26 00 00 00 00 00 00 00
 289.430020 2  682             Rx   d 8 27 00 00 00 00 00 00 00
 289.430675 2  682             Rx   d 8 28 00 00 00 00 00 00 00
 289.430929 2  602             Rx   d 8 30 08 00 CC CC CC CC CC
 289.431708 2  682             Rx   d 8 29 00 00 00 00 00 00 00
 289.432363 2  682             Rx   d 8 2A 00 00 00 00 00 00 00
 289.432904 2  682             Rx   d 8 2B 00 00 00 00 00 00 00
 289.433551 2  682             Rx   d 8 2C 00 00 00 00 00 00 00
 289.434198 2  682             Rx   d 8 2D 00 00 00 00 00 00 00
 289.434845 2  682             Rx   d 8 2E 00 00 00 00 00 00 00
 289.435492 2  682             Rx   d 8 2F 00 00 00 00 00 00 00
 289.436139 2  682             Rx   d 8 20 00 00 00 00 00 00 00
 289.436402 2  602             Rx   d 8 30 08 00 CC CC CC CC CC
 289.437180 2  682             Rx   d 8 21 00 00 00 00 00 00 00
 289.437827 2  682             Rx   d 8 22 00 00 00 00 00 00 00
 289.438368 2  682             Rx   d 8 23 00 00 00 00 00 00 00
 289.439031 2  682             Rx   d 8 24 00 00 00 00 00 00 00
 289.439662 2  682             Rx   d 8 25 7C AA AA AA AA AA AA
 289.441194 2  602             Rx   d 8 03 7F 2E 72 CC CC CC CC
 289.450385 2  682             Rx   d 8 11 03 2E F1 12 FF 24 04
 289.450656 2  602             Rx   d 8 30 08 00 CC CC CC CC CC
 289.451491 2  682             Rx   d 8 21 07 62 02 0E 0B 01 61
 289.452147 2  682             Rx   d 8 22 08 11 11 11 12 11 11
 289.452671 2  682             Rx   d 8 23 11 11 11 21 11 21 01
 289.453302 2  682             Rx   d 8 24 10 11 11 11 11 11 11
 289.453932 2  682             Rx   d 8 25 11 31 11 11 11 11 11
 289.454555 2  682             Rx   d 8 26 11 11 11 11 11 01 11
 289.455194 2  682             Rx   d 8 27 11 21 15 11 22 14 11
 289.455825 2  682             Rx   d 8 28 11 11 11 21 11 11 11
 289.456079 2  602             Rx   d 8 30 08 00 CC CC CC CC CC
 289.456841 2  682             Rx   d 8 29 11 11 12 21 21 21 11
 289.457480 2  682             Rx   d 8 2A 21 21 12 12 10 12 11
 289.458004 2  682             Rx   d 8 2B 11 11 01 01 21 12 11
 289.458627 2  682             Rx   d 8 2C 11 11 11 11 11 11 11
 289.459265 2  682             Rx   d 8 2D 11 11 11 11 11 21 11
 289.459896 2  682             Rx   d 8 2E 11 11 01 11 21 11 11
 289.460519 2  682             Rx   d 8 2F 11 11 22 11 12 11 12
 289.461158 2  682             Rx   d 8 20 17 0D 00 00 00 00 00
 289.461420 2  602             Rx   d 8 30 08 00 CC CC CC CC CC
 289.462198 2  682             Rx   d 8 21 00 00 00 00 00 00 00
 289.462886 2  682             Rx   d 8 22 00 00 00 00 00 00 00
 289.463435 2  682             Rx   d 8 23 00 00 00 00 00 00 00
 289.464082 2  682             Rx   d 8 24 00 00 00 00 00 00 00
 289.464721 2  682             Rx   d 8 25 00 00 00 00 00 00 00
 289.465369 2  682             Rx   d 8 26 00 00 00 00 00 00 00
 289.466016 2  682             Rx   d 8 27 00 00 00 00 00 00 00
 289.466663 2  682             Rx   d 8 28 00 00 00 00 00 00 00
 289.466925 2  602             Rx   d 8 30 08 00 CC CC CC CC CC
 289.467703 2  682             Rx   d 8 29 00 00 00 00 00 00 00
 289.468359 2  682             Rx   d 8 2A 00 00 00 00 00 00 00
 289.468899 2  682             Rx   d 8 2B 00 00 00 00 00 00 00
 289.469546 2  682             Rx   d 8 2C 00 00 00 00 00 00 00
 289.470194 2  682             Rx   d 8 2D 00 00 00 00 00 00 00
 289.470841 2  682             Rx   d 8 2E 00 00 00 00 00 00 00
 289.471488 2  682             Rx   d 8 2F 00 00 00 00 00 00 00
 289.472135 2  682             Rx   d 8 20 00 00 00 00 00 00 00
 289.472397 2  602             Rx   d 8 30 08 00 CC CC CC CC CC
 289.473167 2  682             Rx   d 8 21 00 00 00 00 00 00 00
 289.473823 2  682             Rx   d 8 22 00 00 00 00 00 00 00
 289.474363 2  682             Rx   d 8 23 00 00 00 00 00 00 00
 289.475019 2  682             Rx   d 8 24 00 00 00 00 00 00 00
 289.475649 2  682             Rx   d 8 25 7C AA AA AA AA AA AA
 289.521050 2  602             Rx   d 8 03 7F 2E 78 CC CC CC CC
 289.741103 2  602             Rx   d 8 03 6E F1 12 CC CC CC CC
 290.757632 2  682             Rx   d 8 04 31 01 02 01 AA AA AA
 290.761212 2  602             Rx   d 8 05 71 01 02 01 00 CC CC
 290.775761 2  682             Rx   d 8 04 31 01 02 01 AA AA AA
 290.781249 2  602             Rx   d 8 05 71 01 02 01 00 CC CC
 290.791907 2  682             Rx   d 8 03 22 F1 12 AA AA AA AA
 290.841108 2  602             Rx   d 8 03 7F 22 78 CC CC CC CC
 290.931188 2  602             Rx   d 8 11 03 62 F1 12 FF 24 04
 290.931794 2  682             Rx   d 8 30 00 00 AA AA AA AA AA
 290.932064 2  602             Rx   d 8 21 07 62 02 0E 0B 01 61
 290.932318 2  602             Rx   d 8 22 08 11 11 11 12 11 11
 290.932564 2  602             Rx   d 8 23 11 11 11 21 11 21 01
 290.932826 2  602             Rx   d 8 24 10 11 11 11 11 11 11
 290.933080 2  602             Rx   d 8 25 11 31 11 11 11 11 11
 290.933334 2  602             Rx   d 8 26 11 11 11 11 11 01 11
 290.933588 2  602             Rx   d 8 27 11 21 15 11 22 14 11
 290.933883 2  602             Rx   d 8 28 11 11 11 21 11 11 11
 290.934145 2  602             Rx   d 8 29 11 11 12 21 21 21 11
 290.934399 2  602             Rx   d 8 2A 21 21 12 12 10 12 11
 290.934653 2  602             Rx   d 8 2B 11 11 01 01 21 12 11
 290.934915 2  602             Rx   d 8 2C 11 11 11 11 11 11 11
 290.935161 2  602             Rx   d 8 2D 11 11 11 11 11 21 11
 290.935423 2  602             Rx   d 8 2E 11 11 01 11 21 11 11
 290.935677 2  602             Rx   d 8 2F 11 11 22 11 12 11 12
 290.935947 2  602             Rx   d 8 20 17 0D 00 00 00 00 00
 290.936226 2  602             Rx   d 8 21 00 00 00 00 00 00 00
 290.936504 2  602             Rx   d 8 22 00 00 00 00 00 00 00
 290.936783 2  602             Rx   d 8 23 00 00 00 00 00 00 00
 290.937061 2  602             Rx   d 8 24 00 00 00 00 00 00 00
 290.937332 2  602             Rx   d 8 25 00 00 00 00 00 00 00
 290.937610 2  602             Rx   d 8 26 00 00 00 00 00 00 00
 290.937913 2  602             Rx   d 8 27 00 00 00 00 00 00 00
 290.938192 2  602             Rx   d 8 28 00 00 00 00 00 00 00
 290.938470 2  602             Rx   d 8 29 00 00 00 00 00 00 00
 290.938749 2  602             Rx   d 8 2A 00 00 00 00 00 00 00
 290.939027 2  602             Rx   d 8 2B 00 00 00 00 00 00 00
 290.939306 2  602             Rx   d 8 2C 00 00 00 00 00 00 00
 290.939576 2  602             Rx   d 8 2D 00 00 00 00 00 00 00
 290.939855 2  602             Rx   d 8 2E 00 00 00 00 00 00 00
 290.940125 2  602             Rx   d 8 2F 00 00 00 00 00 00 00
 290.940404 2  602             Rx   d 8 20 00 00 00 00 00 00 00
 290.940682 2  602             Rx   d 8 21 00 00 00 00 00 00 00
 290.940961 2  602             Rx   d 8 22 00 00 00 00 00 00 00
 290.941239 2  602             Rx   d 8 23 00 00 00 00 00 00 00
 290.941518 2  602             Rx   d 8 24 00 00 00 00 00 00 00
 290.941772 2  602             Rx   d 8 25 7C CC CC CC CC CC CC
 290.948489 2  682             Rx   d 8 04 14 FF FF FF AA AA AA
 290.961129 2  602             Rx   d 8 01 54 CC CC CC CC CC CC
 290.965184 2  682             Rx   d 8 02 10 01 AA AA AA AA AA
 290.971451 2  602             Rx   d 8 06 50 01 00 32 00 C8 CC
 290.976735 2  682             Rx   d 8 02 10 03 AA AA AA AA AA
 290.981306 2  602             Rx   d 8 06 50 03 00 32 00 C8 CC
 290.986017 2  682             Rx   d 8 02 85 01 AA AA AA AA AA
 290.991276 2  602             Rx   d 8 02 C5 01 CC CC CC CC CC
 290.995765 2  682             Rx   d 8 02 10 01 AA AA AA AA AA
 291.001377 2  602             Rx   d 8 06 50 01 00 32 00 C8 CC
 291.015811 2  682             Rx   d 8 02 10 01 AA AA AA AA AA
 291.021193 2  602             Rx   d 8 06 50 01 00 32 00 C8 CC
 291.086459 2  688             Rx   d 8 02 10 03 AA AA AA AA AA
 291.093062 2  608             Rx   d 8 06 50 03 00 32 00 C8 00
 291.102228 2  688             Rx   d 8 02 27 03 AA AA AA AA AA
 291.109994 2  608             Rx   d 8 10 12 67 03 32 31 B0 D3
 291.110658 2  688             Rx   d 8 30 00 00 AA AA AA AA AA
 291.112894 2  608             Rx   d 8 21 77 B5 89 24 83 AA F4
 291.115319 2  608             Rx   d 8 22 BE E5 15 FD F3 00 00
 291.118571 2  688             Rx   d 8 10 12 27 04 85 24 C3 8A
 291.119473 2  608             Rx   d 8 30 02 0A 00 00 00 00 00
 291.129999 2  688             Rx   d 8 21 BA 47 7A FB F5 E2 F1
 291.140379 2  688             Rx   d 8 22 69 8C 10 1A DB AA AA
 291.147514 2  608             Rx   d 8 02 67 04 00 00 00 00 00
 291.159245 2  688             Rx   d 8 04 2E FF 01 01 AA AA AA
 291.171221 2  608             Rx   d 8 03 6E FF 01 00 00 00 00
 291.175924 2  688             Rx   d 8 02 11 03 AA AA AA AA AA
 291.183772 2  608             Rx   d 8 02 51 03 00 00 00 00 00
 293.651382 2  688             Rx   d 8 02 3E 00 AA AA AA AA AA
 293.660352 2  608             Rx   d 8 02 7E 00 00 00 00 00 00
 296.111391 2  688             Rx   d 8 02 3E 00 AA AA AA AA AA
 296.119837 2  608             Rx   d 8 02 7E 00 00 00 00 00 00
 297.229517 2  688             Rx   d 8 03 22 FF 01 AA AA AA AA
 297.237520 2  608             Rx   d 8 04 62 FF 01 01 00 00 00
 297.246671 2  688             Rx   d 8 04 14 FF FF FF AA AA AA
 297.278669 2  608             Rx   d 8 01 54 00 00 00 00 00 00
 297.286115 2  688             Rx   d 8 02 10 01 AA AA AA AA AA
 297.292734 2  608             Rx   d 8 06 50 01 00 32 00 C8 00
 297.365291 2  693             Rx   d 8 02 10 03 AA AA AA AA AA
 297.371394 2  613             Rx   d 8 06 50 03 00 32 00 C8 00
 297.380184 2  693             Rx   d 8 02 27 03 AA AA AA AA AA
 297.381200 2  613             Rx   d 8 10 12 67 03 DD F7 3D 83
 297.381814 2  693             Rx   d 8 30 00 00 AA AA AA AA AA
 297.386254 2  613             Rx   d 8 21 0F 37 0F 00 63 00 16
 297.391268 2  613             Rx   d 8 22 6A 00 03 62 0F 00 00
 297.394504 2  693             Rx   d 8 10 12 27 04 C5 15 1F C6
 297.396208 2  613             Rx   d 8 30 00 0A 00 00 00 00 00
 297.406734 2  693             Rx   d 8 21 F5 B1 06 76 BE 66 70
 297.417114 2  693             Rx   d 8 22 A2 15 F5 95 4B AA AA
 297.421472 2  613             Rx   d 8 02 67 04 00 00 00 00 00
 297.474564 2  693             Rx   d 8 02 10 03 AA AA AA AA AA
 297.476702 2  613             Rx   d 8 06 50 03 00 32 00 C8 00
 297.785541 2  6A9             Rx   d 8 02 10 03 AA AA AA AA AA
 297.788473 2  629             Rx   d 8 06 50 03 00 32 00 C8 00
 297.797214 2  6A9             Rx   d 8 02 27 03 AA AA AA AA AA
 297.799459 2  629             Rx   d 8 10 12 67 03 97 FA 6B AD
 297.800262 2  6A9             Rx   d 8 30 00 0A AA AA AA AA AA
 297.815679 2  629             Rx   d 8 21 67 5F 20 00 C2 E1 0A
 297.829704 2  629             Rx   d 8 22 41 7C D6 82 51 00 00
 297.833005 2  6A9             Rx   d 8 10 12 27 04 13 AB 6F 6C
 297.835635 2  629             Rx   d 8 30 08 0A 00 00 00 00 00
 297.846153 2  6A9             Rx   d 8 21 F5 71 35 58 58 0A 77
 297.856541 2  6A9             Rx   d 8 22 AE 2E B8 B9 40 AA AA
 297.859482 2  629             Rx   d 8 02 67 04 00 00 00 00 00
 297.871475 2  6A9             Rx   d 8 04 31 01 F1 15 AA AA AA
 297.874465 2  629             Rx   d 8 05 71 01 F1 15 01 00 00
 297.919807 2  684             Rx   d 8 02 10 03 AA AA AA AA AA
 297.935315 2  604             Rx   d 8 06 50 03 00 32 00 C8 00
 297.945481 2  684             Rx   d 8 02 27 03 AA AA AA AA AA
 297.954279 2  604             Rx   d 8 10 12 67 03 86 D7 E1 20
 297.954935 2  684             Rx   d 8 30 00 00 AA AA AA AA AA
 297.956352 2  604             Rx   d 8 21 FC 13 73 ED 35 B3 7E
 297.956704 2  604             Rx   d 8 22 6D 73 99 C0 DD 00 00
 297.960022 2  684             Rx   d 8 10 12 27 04 39 F3 39 9E
 297.966961 2  604             Rx   d 8 30 08 14 00 00 00 00 00
 297.987482 2  684             Rx   d 8 21 F8 9F 9F 61 FE A3 49
 298.008183 2  684             Rx   d 8 22 6D AC 95 AB F1 AA AA
 298.061431 2  604             Rx   d 8 03 7F 27 78 00 00 00 00
 298.147332 2  604             Rx   d 8 02 67 04 00 00 00 00 00
 298.300735 2  684             Rx   d 8 04 31 01 02 1B AA AA AA
 298.361807 2  604             Rx   d 8 03 7F 31 78 00 00 00 00
 298.439590 2  604             Rx   d 8 04 71 01 02 1B 00 00 00
 298.450051 2  684             Rx   d 8 02 10 01 AA AA AA AA AA
 298.468524 2  604             Rx   d 8 06 50 01 00 32 00 C8 00
 298.590314 2  684             Rx   d 8 02 10 03 AA AA AA AA AA
 298.598957 2  604             Rx   d 8 06 50 03 00 32 00 C8 00
 298.620019 2  684             Rx   d 8 02 27 01 AA AA AA AA AA
 298.628858 2  604             Rx   d 8 10 12 67 01 85 CF 9E 4B
 298.629472 2  684             Rx   d 8 30 00 00 AA AA AA AA AA
 298.635649 2  604             Rx   d 8 21 82 8D 06 4B 0B 66 C7
 298.636263 2  604             Rx   d 8 22 9A D9 1E 11 65 00 00
 298.639573 2  684             Rx   d 8 10 12 27 02 C7 27 5C 49
 298.646430 2  604             Rx   d 8 30 08 14 00 00 00 00 00
 298.666975 2  684             Rx   d 8 21 40 99 F7 C2 12 78 E9
 298.687349 2  684             Rx   d 8 22 C4 88 AE 1C 88 AA AA
 298.747773 2  604             Rx   d 8 03 7F 27 78 00 00 00 00
 298.839515 2  604             Rx   d 8 02 67 02 00 00 00 00 00
 298.872529 2  684             Rx   d 8 10 17 2E F1 5C 33 41 2E
 298.878034 2  604             Rx   d 8 30 08 14 00 00 00 00 00
 298.898547 2  684             Rx   d 8 21 36 2E 39 2E 31 00 00
 298.918977 2  684             Rx   d 8 22 00 00 00 00 00 00 00
 298.939359 2  684             Rx   d 8 23 00 00 00 AA AA AA AA
 299.002462 2  604             Rx   d 8 03 7F 2E 78 00 00 00 00
 299.088617 2  604             Rx   d 8 03 6E F1 5C 00 00 00 00
 301.110141 2  684             Rx   d 8 03 22 F1 5C AA AA AA AA
 301.164061 2  604             Rx   d 8 03 7F 22 78 00 00 00 00
 301.248217 2  604             Rx   d 8 10 17 62 F1 5C 33 41 2E
 301.248823 2  684             Rx   d 8 30 00 00 AA AA AA AA AA
 301.257687 2  604             Rx   d 8 21 36 2E 39 2E 31 00 00
 301.258203 2  604             Rx   d 8 22 00 00 00 00 00 00 00
 301.258572 2  604             Rx   d 8 23 00 00 00 00 00 00 00
 301.266682 2  684             Rx   d 8 04 14 FF FF FF AA AA AA
 301.289480 2  604             Rx   d 8 01 54 00 00 00 00 00 00
 301.293642 2  684             Rx   d 8 02 10 01 AA AA AA AA AA
 301.299548 2  604             Rx   d 8 06 50 01 00 32 00 C8 00
 301.389775 2  684             Rx   d 8 02 10 03 AA AA AA AA AA
 301.399450 2  604             Rx   d 8 06 50 03 00 32 00 C8 00
 301.423518 2  684             Rx   d 8 02 27 03 AA AA AA AA AA
 301.430022 2  604             Rx   d 8 10 12 67 03 F3 8C 50 7D
 301.430636 2  684             Rx   d 8 30 00 00 AA AA AA AA AA
 301.436314 2  604             Rx   d 8 21 73 4F 69 1B 1C 05 A4
 301.436674 2  604             Rx   d 8 22 99 DC A1 6F 18 00 00
 301.439984 2  684             Rx   d 8 10 12 27 04 09 67 53 1E
 301.445996 2  604             Rx   d 8 30 08 14 00 00 00 00 00
 301.466517 2  684             Rx   d 8 21 B8 04 41 8C B7 67 B2
 301.486899 2  684             Rx   d 8 22 40 57 7B A9 71 AA AA
 301.539697 2  604             Rx   d 8 03 7F 27 78 00 00 00 00
 301.639467 2  604             Rx   d 8 02 67 04 00 00 00 00 00
 301.651206 2  684             Rx   d 8 04 31 01 02 1D AA AA AA
 301.699441 2  604             Rx   d 8 03 7F 31 78 00 00 00 00
 301.721764 2  604             Rx   d 8 04 71 01 02 1D 00 00 00
 301.734822 2  684             Rx   d 8 04 31 03 02 1D AA AA AA
 301.779517 2  604             Rx   d 8 05 71 03 02 1D 00 00 00
 301.809983 2  684             Rx   d 8 02 10 01 AA AA AA AA AA
 301.819830 2  604             Rx   d 8 06 50 01 00 32 00 C8 00
 301.903307 2  684             Rx   d 8 02 10 03 AA AA AA AA AA
 301.913407 2  604             Rx   d 8 06 50 03 00 32 00 C8 00
 301.930668 2  684             Rx   d 8 03 22 F1 68 AA AA AA AA
 301.979926 2  604             Rx   d 8 07 62 F1 68 02 02 00 00
 302.065443 2  684             Rx   d 8 03 22 F1 55 AA AA AA AA
 302.112711 2  604             Rx   d 8 10 21 62 F1 55 38 36 34
 302.113333 2  684             Rx   d 8 30 00 00 AA AA AA AA AA
 302.116626 2  604             Rx   d 8 21 36 31 34 30 36 30 30
 302.116987 2  604             Rx   d 8 22 37 38 32 39 35 00 00
 302.117364 2  604             Rx   d 8 23 00 00 00 00 00 00 00
 302.118101 2  604             Rx   d 8 24 00 00 00 00 00 00 00
 302.122836 2  684             Rx   d 8 03 22 F1 71 AA AA AA AA
 302.172774 2  604             Rx   d 8 03 7F 22 78 00 00 00 00
 302.221623 2  604             Rx   d 8 18 03 62 F1 71 2D 2D 2D
 302.222238 2  684             Rx   d 8 30 00 00 AA AA AA AA AA
 302.226284 2  604             Rx   d 8 21 2D 2D 42 45 47 49 4E
 302.226629 2  604             Rx   d 8 22 20 43 45 52 54 49 46
 302.226989 2  604             Rx   d 8 23 49 43 41 54 45 20 52
 302.227530 2  604             Rx   d 8 24 45 51 55 45 53 54 2D
 302.227898 2  604             Rx   d 8 25 2D 2D 2D 2D 0A 4D 49
 302.228332 2  604             Rx   d 8 26 49 43 79 44 43 43 41
 302.228718 2  604             Rx   d 8 27 62 41 43 41 51 41 77
 302.229053 2  604             Rx   d 8 28 67 59 49 78 43 7A 41
 302.229381 2  604             Rx   d 8 29 4A 42 67 4E 56 42 41
 302.229709 2  604             Rx   d 8 2A 59 54 41 6C 5A 4F 4D
 302.236172 2  604             Rx   d 8 2B 52 49 77 45 41 59 44
 302.236508 2  604             Rx   d 8 2C 56 51 51 49 44 41 6C
 302.236877 2  604             Rx   d 8 2D 49 59 57 6B 67 55 47
 302.237770 2  604             Rx   d 8 2E 68 76 62 6D 63 78 0A
 302.238138 2  604             Rx   d 8 2F 45 6A 41 51 42 67 4E
 302.238523 2  604             Rx   d 8 20 56 42 41 63 4D 43 55
 302.238876 2  604             Rx   d 8 21 68 68 61 53 42 51 61
 302.239375 2  604             Rx   d 8 22 47 39 75 5A 7A 45 62
 302.239711 2  604             Rx   d 8 23 4D 42 6B 47 41 31 55
 302.240080 2  604             Rx   d 8 24 45 43 77 77 53 55 32
 302.241325 2  604             Rx   d 8 25 31 68 63 6E 51 67 51
 302.241792 2  604             Rx   d 8 26 32 46 79 49 45 52 70
 302.242128 2  604             Rx   d 8 27 64 6D 6C 7A 61 57 39
 302.242767 2  604             Rx   d 8 28 75 0A 4D 52 51 77 45
 302.243094 2  604             Rx   d 8 29 67 59 44 56 51 51 4B
 302.243439 2  604             Rx   d 8 2A 44 41 74 57 53 55 35
 302.243766 2  604             Rx   d 8 2B 47 51 56 4E 55 49 45
 302.244094 2  604             Rx   d 8 2C 78 4D 51 7A 45 59 4D
 302.244430 2  604             Rx   d 8 2D 42 59 47 41 31 55 45
 302.245978 2  604             Rx   d 8 2E 41 77 77 50 4F 44 59
 302.246347 2  604             Rx   d 8 2F 30 4E 6A 45 30 4D 44
 302.246674 2  604             Rx   d 8 20 59 77 4D 44 63 34 4D
 302.247076 2  604             Rx   d 8 21 6A 6B 31 0A 4D 49 49
 302.247805 2  604             Rx   d 8 22 42 49 6A 41 4E 42 67
 302.248124 2  604             Rx   d 8 23 6B 71 68 6B 69 47 39
 302.248460 2  604             Rx   d 8 24 77 30 42 41 51 45 46
 302.248812 2  604             Rx   d 8 25 41 41 4F 43 41 51 38
 302.249132 2  604             Rx   d 8 26 41 4D 49 49 42 43 67
 302.249476 2  604             Rx   d 8 27 4B 43 41 51 45 41 76
 302.250049 2  604             Rx   d 8 28 39 56 38 77 59 35 6F
 302.253982 2  604             Rx   d 8 29 59 37 56 30 35 51 59
 302.254293 2  604             Rx   d 8 2A 31 79 41 7A 49 0A 69
 302.255243 2  604             Rx   d 8 2B 76 33 39 66 72 51 4A
 302.255710 2  604             Rx   d 8 2C 69 46 6F 4A 4E 33 4F
 302.256423 2  604             Rx   d 8 2D 53 48 42 2B 62 61 51
 302.256734 2  604             Rx   d 8 2E 42 73 4D 6E 48 32 6F
 302.257193 2  604             Rx   d 8 2F 69 6F 35 38 61 61 49
 302.257914 2  604             Rx   d 8 20 50 47 2B 71 65 42 58
 302.258315 2  604             Rx   d 8 21 4E 4F 75 6B 77 71 4E
 302.258799 2  604             Rx   d 8 22 44 4C 65 79 71 56 41
 302.259380 2  604             Rx   d 8 23 39 4B 51 30 66 4B 76
 302.259716 2  604             Rx   d 8 24 0A 4D 56 62 67 32 54
 302.260101 2  604             Rx   d 8 25 75 61 5A 46 7A 73 6D
 302.262051 2  604             Rx   d 8 26 38 6C 5A 4C 61 51 2B
 302.262682 2  604             Rx   d 8 27 58 37 4F 63 6A 51 4C
 302.263345 2  604             Rx   d 8 28 55 33 74 56 46 4C 2B
 302.263665 2  604             Rx   d 8 29 62 41 35 6F 53 49 6E
 302.264009 2  604             Rx   d 8 2A 35 4D 47 34 53 58 70
 302.264361 2  604             Rx   d 8 2B 2B 72 4D 75 36 45 34
 302.264680 2  604             Rx   d 8 2C 6A 53 46 49 44 6F 72
 302.267793 2  604             Rx   d 8 2D 70 37 0A 44 46 35 6A
 302.268113 2  604             Rx   d 8 2E 34 47 66 56 7A 44 4E
 302.268449 2  604             Rx   d 8 2F 75 36 33 43 65 76 52
 302.268776 2  604             Rx   d 8 20 6F 6A 48 62 4B 43 6D
 302.269096 2  604             Rx   d 8 21 77 2F 39 44 4F 68 62
 302.269424 2  604             Rx   d 8 22 72 58 42 72 64 64 61
 302.269751 2  604             Rx   d 8 23 43 68 6A 30 4A 6F 69
 302.272856 2  604             Rx   d 8 24 4A 57 6E 4B 48 58 41
 302.273388 2  604             Rx   d 8 25 68 39 50 51 4F 63 49
 302.273724 2  604             Rx   d 8 26 66 63 42 4E 0A 51 46
 302.274052 2  604             Rx   d 8 27 72 4B 6F 6A 61 31 4C
 302.274560 2  604             Rx   d 8 28 62 57 4E 4D 4F 74 6E
 302.275322 2  604             Rx   d 8 29 30 48 4C 59 55 34 6F
 302.275813 2  604             Rx   d 8 2A 67 41 37 36 50 41 4B
 302.276420 2  604             Rx   d 8 2B 78 30 64 44 42 52 6E
 302.276805 2  604             Rx   d 8 2C 4D 76 59 5A 4A 6D 75
 302.277157 2  604             Rx   d 8 2D 36 34 45 70 6A 36 42
 302.277870 2  604             Rx   d 8 2E 50 4B 78 5A 6B 5A 35
 302.278369 2  604             Rx   d 8 2F 69 39 61 78 54 41 0A
 302.278795 2  604             Rx   d 8 20 70 4A 44 45 32 62 6A
 302.279115 2  604             Rx   d 8 21 4F 61 65 32 37 4F 51
 302.279442 2  604             Rx   d 8 22 62 6D 4F 4F 35 7A 6F
 302.279778 2  604             Rx   d 8 23 6E 39 44 6F 59 4C 61
 302.280122 2  604             Rx   d 8 24 4F 46 61 45 58 36 4F
 302.281310 2  604             Rx   d 8 25 2B 51 2B 53 55 62 65
 302.282523 2  604             Rx   d 8 26 48 4F 74 55 70 52 6B
 302.282998 2  604             Rx   d 8 27 61 58 78 70 68 47 67
 302.283481 2  604             Rx   d 8 28 43 37 4F 4A 42 70 55
 302.283801 2  604             Rx   d 8 29 65 0A 63 51 49 44 41
 302.284145 2  604             Rx   d 8 2A 51 41 42 6F 41 41 77
 302.284472 2  604             Rx   d 8 2B 44 51 59 4A 4B 6F 5A
 302.285922 2  604             Rx   d 8 2C 49 68 76 63 4E 41 51
 302.286389 2  604             Rx   d 8 2D 45 4C 42 51 41 44 67
 302.286741 2  604             Rx   d 8 2E 67 45 42 41 49 42 41
 302.287069 2  604             Rx   d 8 2F 36 65 63 50 59 65 74
 302.287544 2  604             Rx   d 8 20 71 42 71 51 47 79 73
 302.287929 2  604             Rx   d 8 21 4C 55 4A 77 42 74 42
 302.288339 2  604             Rx   d 8 22 4E 4F 36 0A 4B 34 6D
 302.288708 2  604             Rx   d 8 23 54 7A 43 69 2F 74 4F
 302.289043 2  604             Rx   d 8 24 79 70 47 4C 2B 65 42
 302.289371 2  604             Rx   d 8 25 2B 33 4B 35 71 54 76
 302.289699 2  604             Rx   d 8 26 50 2B 4E 6E 4F 68 32
 302.292787 2  604             Rx   d 8 27 4F 58 4E 77 53 50 2F
 302.293115 2  604             Rx   d 8 28 78 73 57 74 78 39 4C
 302.293541 2  604             Rx   d 8 29 55 59 63 44 75 54 79
 302.293885 2  604             Rx   d 8 2A 43 58 30 68 34 50 74
 302.294401 2  604             Rx   d 8 2B 58 53 37 66 47 0A 31
 302.295163 2  604             Rx   d 8 2C 66 71 4D 76 62 49 67
 302.295622 2  604             Rx   d 8 2D 39 31 7A 39 43 35 57
 302.296105 2  604             Rx   d 8 2E 7A 57 53 32 4C 46 42
 302.296498 2  604             Rx   d 8 2F 72 79 4C 51 6F 57 34
 302.296842 2  604             Rx   d 8 20 61 4D 39 58 75 78 64
 302.297719 2  604             Rx   d 8 21 59 69 34 41 67 37 37
 302.298071 2  604             Rx   d 8 22 41 75 32 73 30 4A 4F
 302.298390 2  604             Rx   d 8 23 71 62 7A 35 62 4B 34
 302.298726 2  604             Rx   d 8 24 37 43 36 58 74 53 78
 302.299070 2  604             Rx   d 8 25 0A 30 7A 78 56 38 7A
 302.299390 2  604             Rx   d 8 26 2F 47 42 34 6B 56 34
 302.300209 2  604             Rx   d 8 27 32 36 50 41 43 61 64
 302.302355 2  604             Rx   d 8 28 54 4E 65 4A 57 45 4D
 302.302814 2  604             Rx   d 8 29 4B 33 52 4D 4D 46 72
 302.303134 2  604             Rx   d 8 2A 67 59 79 53 44 51 43
 302.303470 2  604             Rx   d 8 2B 47 4A 48 75 38 6C 4B
 302.303969 2  604             Rx   d 8 2C 38 76 63 74 4A 53 56
 302.304633 2  604             Rx   d 8 2D 61 47 44 4B 6D 62 58
 302.306533 2  604             Rx   d 8 2E 34 4B 0A 69 46 4B 4C
 302.306861 2  604             Rx   d 8 2F 64 6B 54 35 76 4A 56
 302.307475 2  604             Rx   d 8 20 36 6C 78 38 6C 77 50
 302.307803 2  604             Rx   d 8 21 65 6E 48 46 65 6E 67
 302.308139 2  604             Rx   d 8 22 35 35 33 46 6A 42 4E
 302.308467 2  604             Rx   d 8 23 6A 6E 73 48 37 6D 45
 302.308876 2  604             Rx   d 8 24 48 70 6A 72 79 36 47
 302.309491 2  604             Rx   d 8 25 4F 2F 6F 73 6B 66 74
 302.310039 2  604             Rx   d 8 26 56 55 34 74 69 67 66
